time,"V(1,0)","P(3,0)","V(3,0)","V(5,0)"
0.0000000000000000e+00,0.0000000000000000e+00,0.0000000000000000e+00,0.0000000000000000e+00,0.0000000000000000e+00
2.4999999999999999e-13,1.1948932622411488e-05,3.8740319945910684e-03,5.0998683178916430e-06,8.7494213739369929e-06
4.9999999999999999e-13,9.3398769933873448e-06,1.3207659921132632e-02,7.1871425844492744e-06,1.1850615871133995e-05
7.5000000000000004e-13,2.1068310358926874e-05,2.9994638024666287e-02,1.6998910913380274e-05,2.7460817284352599e-05
9.9999999999999998e-13,3.6868153273795701e-05,5.8060937799165352e-02,3.1847279568409176e-05,4.9994635214777489e-05
1.2499999999999999e-12,5.0853923938390025e-05,9.8296119138129648e-02,4.7866686130213469e-05,7.2687957330572553e-05
1.5000000000000001e-12,5.4007073739331772e-05,1.4535706228142983e-01,5.6852282124260494e-05,8.2940815741345284e-05
1.7500000000000000e-12,4.8736634054963382e-05,1.9352737987628688e-01,5.8312689169445585e-05,8.1761517442773056e-05
2.0000000000000000e-12,3.9964602091588567e-05,2.3849867398731506e-01,5.4101418189714739e-05,7.4012132713377054e-05
2.2499999999999999e-12,3.2317360866379478e-05,2.7824839936527834e-01,4.7227620299394999e-05,6.5261017437187732e-05
2.4999999999999998e-12,2.8482426779033777e-05,3.1294756151922615e-01,4.0578938148698392e-05,5.9344709964763208e-05
2.7499999999999998e-12,2.8816753937426236e-05,3.4424311100461358e-01,3.6098341075932619e-05,5.7606881628495384e-05
3.0000000000000001e-12,3.2014319499783782e-05,3.7432368835381580e-01,3.4498922714622429e-05,5.9445905800435096e-05
3.2500000000000001e-12,3.6180836785237594e-05,4.0511627256829513e-01,3.5436225571030920e-05,6.3396549741907799e-05
3.5000000000000000e-12,3.9758180775541930e-05,4.3781677379337736e-01,3.7947853128347285e-05,6.8061665200509080e-05
3.7500000000000000e-12,4.2001022233966899e-05,4.7279479035774574e-01,4.0946028759977239e-05,7.2575856987296830e-05
3.9999999999999999e-12,4.2984089195969188e-05,5.0978382330397998e-01,4.3593378793987815e-05,7.6637895011528410e-05
4.2499999999999999e-12,4.3300958250949932e-05,5.4820397902448470e-01,4.5477343021878932e-05,8.0325762722588946e-05
4.4999999999999998e-12,4.3673086170656358e-05,5.8746904058736538e-01,4.6589597268398006e-05,8.3897794323150115e-05
4.7499999999999998e-12,4.4645510650733907e-05,6.2718381929005074e-01,4.7181615660735738e-05,8.7676569012335804e-05
4.9999999999999997e-12,4.6454228560755852e-05,6.6720773928731425e-01,4.7588576650260954e-05,9.2012212980628480e-05
5.2499999999999996e-12,3.7110533447105833e-05,7.0374196847369552e-01,4.2994664253434059e-05,8.8532265474861507e-05
5.4999999999999996e-12,2.7594689895608761e-05,7.3360827651571014e-01,3.4216853477004265e-05,7.8826695410501164e-05
5.7499999999999995e-12,1.1488932320364888e-05,7.5259448272216389e-01,1.9894027355773777e-05,5.9957458656373239e-05
6.0000000000000003e-12,-4.7244980394232509e-06,7.6001671166437246e-01,4.6709312736856637e-06,3.8931841601264472e-05
6.2500000000000002e-12,-1.6887938374377380e-05,7.5791971135706904e-01,-7.8604096466048194e-06,2.0737188280927895e-05
6.5000000000000002e-12,-2.3483606804245186e-05,7.4983675994204679e-01,-1.5740458765798017e-05,7.6468760353096447e-06
6.7500000000000001e-12,-2.4963697067965359e-05,7.3956467145075355e-01,-1.8622291139506863e-05,-2.0262181911356682e-07
7.0000000000000001e-12,-2.2880733866246581e-05,7.3023098267087505e-01,-1.7386959329019878e-05,-3.8452553085195797e-06
7.2500000000000000e-12,-1.9090116873008726e-05,7.2376997916695396e-01,-1.3605287766527930e-05,-4.6613513016272366e-06
7.5000000000000000e-12,-1.5180082991446181e-05,7.2081790018127079e-01,-8.9860556575985556e-06,-3.8817068083328862e-06
7.7499999999999991e-12,-1.2167634119131598e-05,7.2094879725228822e-01,-4.9275522847977926e-06,-2.4025010771793972e-06
7.9999999999999998e-12,-1.0439130114772990e-05,7.2310793605068691e-01,-2.2575263942167505e-06,-8.0137564838038390e-07
8.2500000000000006e-12,-9.8747317635445522e-06,7.2607903731649337e-01,-1.1886395939446847e-06,5.6836591746049927e-07
8.4999999999999997e-12,-1.0071554550901136e-05,7.2885104015972146e-01,-1.4507375164366261e-06,1.4931255229855821e-06
8.7500000000000005e-12,-1.0575894455778515e-05,7.3081351424810637e-01,-2.5164205193161251e-06,1.8585803162074659e-06
8.9999999999999996e-12,-1.1052899722307366e-05,7.3177936284623568e-01,-3.8284021368283489e-06,1.6442480010972381e-06
9.2500000000000004e-12,-1.1357325141088994e-05,7.3188433386267149e-01,-4.9616819627543437e-06,9.2447127306488927e-07
9.4999999999999995e-12,-1.1509510262482635e-05,7.3143340134022705e-01,-5.6934866689874042e-06,-1.4755064049539766e-07
9.7500000000000003e-12,-1.1612730325898702e-05,7.3075655380652260e-01,-5.9908865898114178e-06,-1.3778648092653582e-06
9.9999999999999994e-12,-1.1761550068418452e-05,7.3011207315669235e-01,-5.9482780502202668e-06,-2.5804331889504536e-06
1.0250000000000000e-11,-1.1983137186721417e-05,7.2964736351969384e-01,-5.7116231918980104e-06,-3.6183959204022818e-06
1.0499999999999999e-11,-1.2230300708661078e-05,7.2940610842278142e-01,-5.4174622941394894e-06,-4.4244718322912659e-06
1.0750000000000000e-11,-1.2417853004367737e-05,7.2936069535267611e-01,-5.1596511688778063e-06,-4.9973409998955736e-06
1.0999999999999999e-11,-1.2475131335222606e-05,7.2944964647208288e-01,-4.9827709381237678e-06,-5.3806024241773485e-06
1.1250000000000000e-11,-1.2384628691905236e-05,7.2960696033826844e-01,-4.8927765842030996e-06,-5.6358139218274278e-06
1.1499999999999999e-11,-1.2188837479010749e-05,7.2977878037279709e-01,-4.8736803174582195e-06,-5.8202103511998546e-06
1.1750000000000000e-11,-1.1966442956088113e-05,7.2992905704533517e-01,-4.9020405141292674e-06,-5.9747929098228319e-06
1.2000000000000001e-11,-1.1794303236745034e-05,7.3003855573389531e-01,-4.9557216269458319e-06,-6.1227272159261153e-06
1.2250000000000000e-11,-1.1716015813598726e-05,7.3010130138789187e-01,-5.0172684391737694e-06,-6.2740827351460348e-06
1.2500000000000000e-11,-1.1730913332025657e-05,7.3012086362892026e-01,-5.0741161162095414e-06,-6.4320192187910039e-06
1.2750000000000000e-11,-1.1804682659675827e-05,7.3010719279500957e-01,-5.1178649304228848e-06,-6.5970357759385790e-06
1.3000000000000000e-11,-1.1892057907482773e-05,7.3007378932854361e-01,-5.1438414395838258e-06,-6.7683598534272386e-06
1.3249999999999999e-11,-1.1958316815333892e-05,7.3003489388500742e-01,-5.1510712094727017e-06,-6.9435030720768494e-06
1.3500000000000000e-11,-1.1990010303700793e-05,7.3000275717766838e-01,-5.1421738475900484e-06,-7.1176829173067769e-06
1.3749999999999999e-11,-1.1992937214237461e-05,7.2998543278512074e-01,-5.1226745623428645e-06,-7.2842911582222150e-06
1.4000000000000000e-11,-1.1982079871767486e-05,7.2998563841820419e-01,-5.0995976175853925e-06,-7.4365295639041336e-06
1.4249999999999999e-11,-1.1970831317260411e-05,7.3000099927521078e-01,-5.0796469185606754e-06,-7.5694607902796356e-06
1.4500000000000000e-11,-1.1965050371260229e-05,7.3002555956105697e-01,-5.0675365705441311e-06,-7.6814652494104151e-06
1.4750000000000001e-11,-1.1963344690925071e-05,7.3005203950698472e-01,-5.0650094841275122e-06,-7.7744510392782705e-06
1.5000000000000000e-11,-1.1961294377766661e-05,7.3007410415782104e-01,-5.0708218841237879e-06,-7.8528180091034083e-06
1.5249999999999999e-11,-1.1955925788545949e-05,7.3008797092543265e-01,-5.0816137735531503e-06,-7.9217369130854668e-06
1.5499999999999998e-11,-1.1947752372762905e-05,7.3009297135957252e-01,-5.0932856268655526e-06,-7.9855131381252229e-06
1.5750000000000001e-11,-1.1939896896585501e-05,7.3009107073620694e-01,-5.1023703439203226e-06,-8.0466312523664024e-06
1.6000000000000000e-11,-1.1935649727006717e-05,7.3008568561631093e-01,-5.1069574184421994e-06,-8.1056789156273601e-06
1.6249999999999999e-11,-1.1936367828534479e-05,7.3008031076082802e-01,-5.1069439061234500e-06,-8.1619528996244567e-06
1.6500000000000001e-11,-1.1940919480899049e-05,7.3007743511189693e-01,-5.1036538908805993e-06,-8.2143293804867980e-06
1.6750000000000000e-11,-1.1946666094312400e-05,7.3007803498567947e-01,-5.0990786297056592e-06,-8.2619885190433166e-06
1.6999999999999999e-11,-1.1951077072602279e-05,7.3008167726274320e-01,-5.0950735373043370e-06,-8.3047584526205162e-06
1.7249999999999999e-11,-1.1952927525727049e-05,7.3008705043256295e-01,-5.0927949487071375e-06,-8.3430673332063404e-06
1.7500000000000001e-11,-1.1952521454417703e-05,7.3009263732967800e-01,-5.0925135929869155e-06,-8.3776555552337524e-06
1.7750000000000000e-11,-1.1951067831436815e-05,7.3009726523314411e-01,-5.0937760351490082e-06,-8.4092511479944353e-06
1.7999999999999999e-11,-1.1949773597102698e-05,7.3010038054399984e-01,-5.0957672482165196e-06,-8.4383605716607854e-06
1.8249999999999998e-11,-1.1949222551395985e-05,7.3010203378351679e-01,-5.0976919538744830e-06,-8.4652270480676311e-06
1.8500000000000001e-11,-1.1949293484791662e-05,7.3010266747295560e-01,-5.0990341139674490e-06,-8.4899176065698630e-06
1.8750000000000000e-11,-1.1949499141994366e-05,7.3010284245289414e-01,-5.0996379701180499e-06,-8.5124553189893338e-06
1.8999999999999999e-11,-1.1949425720964049e-05,7.3010301842159753e-01,-5.0996366684843697e-06,-8.5329201719952481e-06
1.9249999999999998e-11,-1.1948988817055259e-05,7.3010344739577282e-01,-5.0993036060336130e-06,-8.5514814234152980e-06
1.9500000000000001e-11,-1.1948409677129253e-05,7.3010417758679247e-01,-5.0989070769797768e-06,-8.5683681856467250e-06
1.9750000000000000e-11,-1.1948005645950473e-05,7.3010512504248770e-01,-5.0986210645676043e-06,-8.5838119726947852e-06
1.9999999999999999e-11,-1.1947971001536801e-05,7.3010616046292620e-01,-5.0985052656769635e-06,-8.5979978774769832e-06
2.0250000000000001e-11,-1.1948281498730553e-05,7.3010717285336457e-01,-5.0985355829196153e-06,-8.6110459421240346e-06
2.0500000000000000e-11,-1.1948747487175839e-05,7.3010809607117633e-01,-5.0986529718967679e-06,-8.6230236211628144e-06
2.0749999999999999e-11,-1.1949147476791135e-05,7.3010890517960936e-01,-5.0988031882104533e-06,-8.6339752756525856e-06
2.0999999999999999e-11,-1.1949346066452364e-05,7.3010959926435526e-01,-5.0989546081415802e-06,-8.6439506168843873e-06
2.1250000000000001e-11,-1.1949335273457391e-05,7.3011018583121468e-01,-5.0990961472573249e-06,-8.6530195652782458e-06
2.1500000000000000e-11,-1.1949198484062092e-05,7.3011067397329343e-01,-5.0992257159912120e-06,-8.6612707292066519e-06
2.1749999999999999e-11,-1.1949039632631546e-05,7.3011107527026486e-01,-5.0993400409663392e-06,-8.6687989340751848e-06
2.1999999999999998e-11,-1.1948926615240548e-05,7.3011140699361166e-01,-5.0994316293488184e-06,-8.6756906250287508e-06
2.2250000000000001e-11,-1.1948874498698502e-05,7.3011169253304742e-01,-5.0994924269532215e-06,-8.6820144001126255e-06
2.2500000000000000e-11,-1.1948863296990060e-05,7.3011195729290324e-01,-5.0995197816889517e-06,-8.6878195709015197e-06
2.2749999999999999e-11,-1.1948867150408474e-05,7.3011222191232317e-01,-5.0995199665621078e-06,-8.6931412786738179e-06
2.2999999999999998e-11,-1.1948873264997049e-05,7.3011249645453935e-01,-5.0995069039559396e-06,-8.6980082681753937e-06
2.3250000000000000e-11,-1.1948882978717986e-05,7.3011277859110857e-01,-5.0994969065680775e-06,-8.7024494276226375e-06
2.3500000000000000e-11,-1.1948901401364652e-05,7.3011305657444558e-01,-5.0995023739822229e-06,-8.7064968974519646e-06
2.3749999999999999e-11,-1.1948927474147294e-05,7.3011331540121271e-01,-5.0995275921487163e-06,-8.7101856663805629e-06
2.4000000000000001e-11,-1.1948952224129733e-05,7.3011354326284772e-01,-5.0995683553887991e-06,-8.7135510559865722e-06
2.4250000000000000e-11,-1.1948964847773413e-05,7.3011373562586712e-01,-5.0996150866148944e-06,-8.7166259030165486e-06
2.4499999999999999e-11,-1.1948960533107777e-05,7.3011389571089957e-01,-5.0996575781284497e-06,-8.7194387559529671e-06
2.4749999999999999e-11,-1.1948943808332250e-05,7.3011403187936219e-01,-5.0996890624726545e-06,-8.7220135217080136e-06
2.5000000000000001e-11,-1.1948925418218234e-05,7.3011415363793031e-01,-5.0997080320022107e-06,-8.7243702413029581e-06
2.5250000000000000e-11,-1.1948915497366298e-05,7.3011426819223080e-01,-5.0997175158723166e-06,-8.7265263238987461e-06
2.5499999999999999e-11,-1.1948917866291417e-05,7.3011437881711094e-01,-5.0997226886551823e-06,-8.7284976321913357e-06
2.5749999999999998e-11,-1.1948928829935409e-05,7.3011448524126943e-01,-5.0997282185855837e-06,-8.7302991102400801e-06
2.6000000000000001e-11,-1.1948940521459779e-05,7.3011458533436757e-01,-5.0997365529447485e-06,-8.7319449584817331e-06
2.6250000000000000e-11,-1.1948946070283740e-05,7.3011467700674826e-01,-5.0997476381784875e-06,-8.7334485449127526e-06
2.6499999999999999e-11,-1.1948943274304340e-05,7.3011475943253146e-01,-5.0997598106204402e-06,-8.7348222642679420e-06
2.6749999999999998e-11,-1.1948934953537057e-05,7.3011483325648596e-01,-5.0997711342733405e-06,-8.7360774736517114e-06
2.7000000000000000e-11,-1.1948926434021054e-05,7.3011490000569657e-01,-5.0997804476353194e-06,-8.7372245270271259e-06
2.7250000000000000e-11,-1.1948922155608525e-05,7.3011496123546848e-01,-5.0997877135563326e-06,-8.7382728640391571e-06
2.7499999999999999e-11,-1.1948923470945893e-05,7.3011501791418310e-01,-5.0997937046769571e-06,-8.7392310985035357e-06
2.7749999999999998e-11,-1.1948928586589305e-05,7.3011507029123712e-01,-5.0997993674857706e-06,-8.7401070797559840e-06
2.8000000000000000e-11,-1.1948934197097040e-05,7.3011511818240882e-01,-5.0998052728084984e-06,-8.7409079339329631e-06
2.8249999999999999e-11,-1.1948937537538023e-05,7.3011516141205712e-01,-5.0998114093493122e-06,-8.7416401086276663e-06
2.8499999999999999e-11,-1.1948937656482702e-05,7.3011520013827891e-01,-5.0998173377676282e-06,-8.7423094382254097e-06
2.8750000000000001e-11,-1.1948935427846507e-05,7.3011523491586439e-01,-5.0998225358468457e-06,-8.7429212286673536e-06
2.9000000000000000e-11,-1.1948932619310714e-05,7.3011526652219128e-01,-5.0998267105674540e-06,-8.7434803444635092e-06
2.9250000000000002e-11,-1.1948930755742930e-05,7.3011529568697364e-01,-5.0998299246750230e-06,-8.7439912772157165e-06
2.9500000000000002e-11,-1.1948930426596589e-05,7.3011532288319736e-01,-5.0998325161326831e-06,-8.7444581839814794e-06
2.9750000000000001e-11,-1.1948931272275956e-05,7.3011534826994451e-01,-5.0998348981708898e-06,-8.7448848985484589e-06
3.0000000000000000e-11,-1.1948932459887370e-05,7.3011537178204478e-01,-5.0998373660008547e-06,-8.7452749299732391e-06
3.0249999999999999e-11,-1.1948933256425180e-05,7.3011539329160824e-01,-5.0998400021881683e-06,-8.7456314652611757e-06
3.0499999999999998e-11,-1.1948933372660924e-05,7.3011541275054037e-01,-5.0998427016882690e-06,-8.7459573868190470e-06
3.0749999999999997e-11,-1.1948932970182902e-05,7.3011543025511272e-01,-5.0998452744542049e-06,-8.7462553051920168e-06
3.0999999999999996e-11,-1.1948932433466081e-05,7.3011544602535061e-01,-5.0998475575735356e-06,-8.7465275990667241e-06
3.1250000000000002e-11,-1.1948932099460903e-05,7.3011546033299257e-01,-5.0998494829697820e-06,-8.7467764518099711e-06
3.1500000000000001e-11,-1.1948932097842557e-05,7.3011547342531413e-01,-5.0998510828466063e-06,-8.7470038767215174e-06
3.1750000000000000e-11,-1.1948932348146832e-05,7.3011548547957095e-01,-5.0998524493798501e-06,-8.7472117295561334e-06
3.1999999999999999e-11,-1.1948932664156995e-05,7.3011549659799335e-01,-5.0998536813346365e-06,-8.7474017125442455e-06
3.2249999999999998e-11,-1.1948932877877275e-05,7.3011550683177684e-01,-5.0998548458944529e-06,-8.7475753768399936e-06
3.2499999999999998e-11,-1.1948932915335115e-05,7.3011551621355386e-01,-5.0998559674961293e-06,-8.7477341290188750e-06
3.2749999999999997e-11,-1.1948932803640618e-05,7.3011552478150843e-01,-5.0998570388314605e-06,-8.7478792436985895e-06
3.3000000000000002e-11,-1.1948932629160360e-05,7.3011553258847295e-01,-5.0998580406169503e-06,-8.7480118803752100e-06
3.3250000000000002e-11,-1.1948932482495829e-05,7.3011553969876486e-01,-5.0998589577334248e-06,-8.7481331005300329e-06
3.3500000000000001e-11,-1.1948932418866477e-05,7.3011554617987917e-01,-5.0998597859978550e-06,-8.7482438811784916e-06
3.3750000000000000e-11,-1.1948932445221265e-05,7.3011555209526779e-01,-5.0998605307326740e-06,-8.7483451231409201e-06
3.3999999999999999e-11,-1.1948932530274078e-05,7.3011555750089241e-01,-5.0998612017982001e-06,-8.7484376547568718e-06
3.4249999999999998e-11,-1.1948932626379959e-05,7.3011556244501519e-01,-5.0998618093302488e-06,-8.7485222335237779e-06
3.4499999999999997e-11,-1.1948932691946123e-05,7.3011556696936331e-01,-5.0998623619316441e-06,-8.7485995482696513e-06
3.4749999999999996e-11,-1.1948932706490480e-05,7.3011557111026026e-01,-5.0998628667159163e-06,-8.7486702235478913e-06
3.5000000000000002e-11,-1.1948932674727761e-05,7.3011557489940571e-01,-5.0998633297700211e-06,-8.7487348262284589e-06
3.5250000000000001e-11,-1.1948932620148458e-05,7.3011557836467711e-01,-5.0998637561255467e-06,-8.7487938731396098e-06
3.5500000000000000e-11,-1.1948932571976622e-05,7.3011558153125611e-01,-5.0998641493313673e-06,-8.7488478380586503e-06
3.5749999999999999e-11,-1.1948932551519230e-05,7.3011558442289604e-01,-5.0998645112677325e-06,-8.7488971569111665e-06
3.5999999999999998e-11,-1.1948932563798371e-05,7.3011558706280544e-01,-5.0998648426518133e-06,-8.7489422308679931e-06
3.6249999999999998e-11,-1.1948932597683662e-05,7.3011558947372523e-01,-5.0998651440992027e-06,-8.7489834279704276e-06
3.6499999999999997e-11,-1.1948932633577234e-05,7.3011559167723872e-01,-5.0998654171338324e-06,-8.7490210842892205e-06
3.6750000000000002e-11,-1.1948932654127286e-05,7.3011559369280832e-01,-5.0998656645476517e-06,-8.7490555055091588e-06
3.7000000000000001e-11,-1.1948932652337943e-05,7.3011559553715966e-01,-5.0998658899434637e-06,-8.7490869693297655e-06
3.7250000000000001e-11,-1.1948932633360198e-05,7.3011559722438257e-01,-5.0998660967910736e-06,-8.7491157284909438e-06
3.7500000000000000e-11,-1.1948932609910337e-05,7.3011559876667231e-01,-5.0998662875845716e-06,-8.7491420139070771e-06
3.7749999999999999e-11,-1.1948932594597948e-05,7.3011560017528898e-01,-5.0998664635549998e-06,-8.7491660373448266e-06
3.7999999999999998e-11,-1.1948932593591542e-05,7.3011560146124577e-01,-5.0998666250274003e-06,-8.7491879933596527e-06
3.8249999999999997e-11,-1.1948932604690649e-05,7.3011560263546238e-01,-5.0998667721248343e-06,-8.7492080605272967e-06
3.8499999999999996e-11,-1.1948932620049367e-05,7.3011560370843820e-01,-5.0998669054006345e-06,-8.7492264022742175e-06
3.8750000000000002e-11,-1.1948932631294480e-05,7.3011560468974834e-01,-5.0998670260715206e-06,-8.7492431676557081e-06
3.9000000000000001e-11,-1.1948932633914409e-05,7.3011560558769428e-01,-5.0998671358141520e-06,-8.7492584923412510e-06
3.9250000000000000e-11,-1.1948932628746752e-05,7.3011560640929396e-01,-5.0998672363181966e-06,-8.7492724998328508e-06
3.9499999999999999e-11,-1.1948932620379234e-05,7.3011560716058066e-01,-5.0998673288798810e-06,-8.7492853028075888e-06
3.9749999999999998e-11,-1.1948932613939612e-05,7.3011560784702501e-01,-5.0998674142399050e-06,-8.7492970043739438e-06
3.9999999999999998e-11,-1.1948932612319366e-05,7.3011560847386836e-01,-5.0998674927000739e-06,-8.7493076990875590e-06
4.0249999999999997e-11,-1.1948932615205145e-05,7.3011560904624551e-01,-5.0998675644006937e-06,-8.7493174737001206e-06
4.0500000000000002e-11,-1.1948932620025105e-05,7.3011560956910659e-01,-5.0998676295848155e-06,-8.7493264076706053e-06
4.0750000000000001e-11,-1.1948932623852836e-05,7.3011561004704328e-01,-5.0998676887243662e-06,-8.7493345735999299e-06
4.1000000000000001e-11,-1.1948932625041202e-05,7.3011561048414597e-01,-5.0998677424792235e-06,-8.7493420376819845e-06
4.1250000000000000e-11,-1.1948932623759737e-05,7.3011561088396881e-01,-5.0998677915553036e-06,-8.7493488602157469e-06
4.1499999999999999e-11,-1.1948932621432990e-05,7.3011561124960633e-01,-5.0998678365576779e-06,-8.7493550961860933e-06
4.1749999999999998e-11,-1.1948932619648031e-05,7.3011561158382832e-01,-5.0998678779138413e-06,-8.7493607958361297e-06
4.1999999999999997e-11,-1.1948932619258389e-05,7.3011561188920482e-01,-5.0998679158867231e-06,-8.7493660051658675e-06
