time,"V(1,0)","P(3,0)","V(3,0)","V(5,0)"
0.0000000000000000e+00,0.0000000000000000e+00,0.0000000000000000e+00,0.0000000000000000e+00,0.0000000000000000e+00
2.4999999999999999e-13,2.3897865245281583e-05,3.8740319947277442e-03,1.0199736636143131e-05,1.7498842748465398e-05
4.9999999999999999e-13,1.8679753987829852e-05,1.3207659921754631e-02,1.4374285169816482e-05,2.3701231743716684e-05
7.5000000000000004e-13,4.7354731977460152e-05,2.9994638026216248e-02,2.9823273295170530e-05,4.8719245576600944e-05
9.9999999999999998e-13,5.0279439818654591e-05,5.8060937802254492e-02,4.4071022481483504e-05,6.8768867606659804e-05
1.2499999999999999e-12,7.5326273307027892e-05,9.8296119143329724e-02,6.1862086420284460e-05,9.4105889809796274e-05
1.5000000000000001e-12,5.6585739419735050e-05,1.4535706228894291e-01,6.2042214470109505e-05,8.9274584428249135e-05
1.7500000000000000e-12,6.4785393937276243e-05,1.9352737988604982e-01,6.4782900510488488e-05,9.1747293211969801e-05
2.0000000000000000e-12,3.9041675492606770e-05,2.3849867399919811e-01,5.3619672510306262e-05,7.3775814969094953e-05
2.2499999999999999e-12,4.9490911487324998e-05,2.7824839937924550e-01,5.1035304729754290e-05,7.4245062660054518e-05
2.4999999999999998e-12,3.1371807318876506e-05,3.1294756153539005e-01,4.0322308209209468e-05,6.1943200025344147e-05
2.7499999999999998e-12,5.0159565804994950e-05,3.4424311102318850e-01,4.2074110584786815e-05,7.0769405988684118e-05
3.0000000000000001e-12,3.7766938443967843e-05,3.7432368837501617e-01,3.7123471487153590e-05,6.5621248369952643e-05
3.2500000000000001e-12,5.8492600375660911e-05,4.0511627259223981e-01,4.3948716297916740e-05,7.8670693871752201e-05
3.5000000000000000e-12,4.4921626423913391e-05,4.3781677382004514e-01,4.2146726601730564e-05,7.4951479286819781e-05
3.7500000000000000e-12,6.2978283291769389e-05,4.7279479038699557e-01,4.9945067560805187e-05,8.7699077444826826e-05
3.9999999999999999e-12,4.6887760347393222e-05,5.0978382333561845e-01,4.7441426669242521e-05,8.3075555334857323e-05
4.2499999999999999e-12,6.3612021401556132e-05,5.4820397905834661e-01,5.3712996016152283e-05,9.5074812866701797e-05
4.4999999999999998e-12,4.7632016186934172e-05,5.8746904062337202e-01,4.9665935162073558e-05,9.0219618535894444e-05
4.7499999999999998e-12,6.5556870361973391e-05,6.2718381932822820e-01,5.4897032800896656e-05,1.0263236224508610e-04
4.9999999999999997e-12,5.1249452007166746e-05,6.6720773932777244e-01,5.0479857141413214e-05,9.8890906472525158e-05
5.2499999999999996e-12,4.6869480134177874e-05,7.0374196851644788e-01,4.5709208007277966e-05,9.5672467232985484e-05
5.4999999999999996e-12,3.2217764902491342e-05,7.3360827656044414e-01,3.2924235587731064e-05,7.9479766341825829e-05
5.7499999999999995e-12,1.4657964981684190e-05,7.5259448276832996e-01,1.7063555763370155e-05,5.7933993721975206e-05
6.0000000000000003e-12,-2.0909581808548374e-07,7.6001671171146001e-01,2.4780434222103496e-06,3.7428532229479301e-05
6.2500000000000002e-12,-9.6689156877611317e-06,7.5791971140476311e-01,-7.9991260780401919e-06,2.1544687080513207e-05
6.5000000000000002e-12,-1.3400432676257518e-05,7.4983675999024024e-01,-1.3282054816457897e-05,1.1247907738715519e-05
6.7500000000000001e-12,-1.2629096213316118e-05,7.3956467149946015e-01,-1.3762790825421688e-05,5.8456913728476295e-06
7.0000000000000001e-12,-9.2345062713946155e-06,7.3023098272010967e-01,-1.0811391195444489e-05,3.9626407611437533e-06
7.2500000000000000e-12,-5.0478622263583910e-06,7.2376997921664254e-01,-6.1994477006327608e-06,4.2134993874815746e-06
7.5000000000000000e-12,-1.4144385087849227e-06,7.2081790023122316e-01,-1.5729269780863419e-06,5.5219297480128346e-06
7.7499999999999991e-12,9.7703551706869152e-07,7.2094879730223638e-01,1.9175590442633808e-06,7.1719108495517757e-06
7.9999999999999998e-12,2.0425694985346644e-06,7.2310793610036472e-01,3.7671248023748009e-06,8.7241806050099951e-06
8.2500000000000006e-12,2.1058322183921657e-06,7.2607903736571733e-01,4.0553326443241191e-06,9.9113939804388447e-06
8.4999999999999997e-12,1.6489239232162342e-06,7.2885104020844182e-01,3.2429289572599402e-06,1.0573699815196803e-05
8.7500000000000005e-12,1.0971524085893867e-06,7.3081351429640939e-01,1.9239666387923485e-06,1.0642303566046911e-05
8.9999999999999996e-12,6.9491339050801265e-07,7.3177936289430279e-01,6.1896572271291638e-07,1.0145035184247602e-05
9.2500000000000004e-12,4.8830157152866696e-07,7.3188433391071306e-01,-3.4259301250566127e-07,9.2027501094328241e-06
9.4999999999999995e-12,3.9054314815336515e-07,7.3143340138841828e-01,-8.4464368929166744e-07,8.0009913568095006e-06
9.7500000000000003e-12,2.8186144494331583e-07,7.3075655385496163e-01,-9.3739285389522926e-07,6.7421217718206594e-06
9.9999999999999994e-12,9.2903663187949971e-08,7.3011207320538962e-01,-7.5942661008169660e-07,5.5958545975762056e-06
1.0250000000000000e-11,-1.6131279167948262e-07,7.2964736356859028e-01,-4.6408313740620202e-07,4.6661963091859622e-06
1.0499999999999999e-11,-4.0142338070483066e-07,7.2940610847178311e-01,-1.7110481481179493e-07,3.9837027740998065e-06
1.0750000000000000e-11,-5.3641738305957608e-07,7.2936069540169046e-01,5.1539112873256444e-08,3.5204579742294873e-06
1.0999999999999999e-11,-5.1598004234202051e-07,7.2944964652104360e-01,1.8265564652148696e-07,3.2171799256878816e-06
1.1250000000000000e-11,-3.5541209636506639e-07,7.2960696038714534e-01,2.3152782063506183e-07,3.0100349789671588e-06
1.1499999999999999e-11,-1.2439761655835897e-07,7.2977878042159250e-01,2.2084818001733086e-07,2.8483870668969977e-06
1.1750000000000000e-11,8.9376949387495333e-08,7.2992905709407219e-01,1.7480742735384706e-07,2.7008698616249626e-06
1.2000000000000001e-11,2.1988182197314905e-07,7.3003855578260368e-01,1.1348595446228340e-07,2.5525184545842972e-06
1.2250000000000000e-11,2.4595179552671791e-07,7.3010130143659779e-01,5.1713802967193020e-08,2.3981588230918239e-06
1.2500000000000000e-11,1.9008678502496274e-07,7.3012086367764106e-01,-2.0939956357747780e-10,2.2366454872217365e-06
1.2750000000000000e-11,9.8413140222403761e-08,7.3010719284375303e-01,-3.5783825439160416e-08,2.0681257087423306e-06
1.3000000000000000e-11,1.5336289479908994e-08,7.3007378937731038e-01,-5.2162417883792541e-08,1.8939973322050710e-06
1.3249999999999999e-11,-3.4104675382387444e-08,7.3003489393379373e-01,-5.0243365227022733e-08,1.7178392714140999e-06
1.3500000000000000e-11,-4.8050687168851135e-08,7.3000275722646890e-01,-3.4367694132369527e-08,1.5456376417313934e-06
1.3749999999999999e-11,-3.9958496409649101e-08,7.2998543283392991e-01,-1.1244794747034757e-08,1.3846227895809568e-06
1.4000000000000000e-11,-2.6336002226518572e-08,7.2998563846701714e-01,1.1786195369852372e-08,1.2411608303793764e-06
1.4249999999999999e-11,-1.7461387420071241e-08,7.3000099932402307e-01,2.8656603290426801e-08,1.1187603368488273e-06
1.4500000000000000e-11,-1.4774110254719951e-08,7.3002555960986504e-01,3.6006891393423843e-08,1.0171519121390771e-06
1.4750000000000001e-11,-1.4050026765814700e-08,7.3005203955578635e-01,3.3710776117917096e-08,9.3278875712967415e-07
1.5000000000000000e-11,-1.0673483939924385e-08,7.3007410420661523e-01,2.4382091398198664e-08,8.6041797249789976e-07
1.5249999999999999e-11,-3.3128483235115245e-09,7.3008797097422051e-01,1.2126997262405254e-08,7.9495094916207632e-07
1.5499999999999998e-11,5.6733476261227638e-09,7.3009297140835705e-01,1.0383847811658845e-09,7.3286552241177615e-07
1.5750000000000001e-11,1.2398104025619370e-08,7.3009107078499147e-01,-6.0424368385405118e-09,6.7271472067019699e-07
1.6000000000000000e-11,1.4167686773352933e-08,7.3008568566509902e-01,-8.1357642533911156e-09,6.1477019588363410e-07
1.6249999999999999e-11,1.0961900962094879e-08,7.3008031080962121e-01,-6.0154121969055813e-09,5.6016675267320256e-07
1.6500000000000001e-11,5.0643820437067504e-09,7.3007743516069556e-01,-1.5557337669614509e-09,5.1001723415967983e-07
1.6750000000000000e-11,-5.3132585609943109e-10,7.3007803503448221e-01,3.1351101494952238e-09,4.6484847556529789e-07
1.6999999999999999e-11,-3.7575745275525959e-09,7.3008167731154772e-01,6.4544510298046865e-09,4.2447736701101638e-07
1.7249999999999999e-11,-4.2322321001212479e-09,7.3008705048136724e-01,7.6922873384810584e-09,3.8823071439692401e-07
1.7500000000000001e-11,-2.9454319061705788e-09,7.3009263737848040e-01,7.0171624656013366e-09,3.5530092295963208e-07
1.7750000000000000e-11,-1.3249861367668454e-09,7.3009726528194441e-01,5.1674030136075085e-09,3.2503952887652355e-07
1.7999999999999999e-11,-3.5696323966783646e-10,7.3010038059279814e-01,3.0347363308180868e-09,2.9708207562671393e-07
1.8249999999999998e-11,-2.2289472417906887e-10,7.3010203383231431e-01,1.3179917011089601e-09,2.7130657606316550e-07
1.8500000000000001e-11,-4.9883003265855389e-10,7.3010266752175346e-01,3.5041614761590813e-10,2.4770095862544390e-07
1.8750000000000000e-11,-6.3420913551013200e-10,7.3010284250169311e-01,1.1027940169533703e-10,2.2623115122625314e-07
1.8999999999999999e-11,-3.5198797874910391e-10,7.3010301847039782e-01,3.5301941564250971e-10,2.0677125261523654e-07
1.9249999999999998e-11,2.3959868421683751e-10,7.3010344744457423e-01,7.7640430288029827e-10,1.8910864839009446e-07
1.9500000000000001e-11,8.0629187899423731e-10,7.3010417763559454e-01,1.1460775224206001e-09,1.7299772815449692e-07
1.9750000000000000e-11,1.0476610439081659e-09,7.3010512509129022e-01,1.3484291266630015e-09,1.5822107429753922e-07
1.9999999999999999e-11,8.7558070642871145e-10,7.3010616051172894e-01,1.3776753029887017e-09,1.4462591859071202e-07
2.0250000000000001e-11,4.2666665580866043e-10,7.3010717290216709e-01,1.2877946404628838e-09,1.3212494500372796e-07
2.0500000000000000e-11,-5.6396183004831149e-11,7.3010809611997862e-01,1.1428973488083241e-09,1.2067056051608701e-07
2.0749999999999999e-11,-3.7331257323557197e-10,7.3010890522841132e-01,9.8736201308909116e-10,1.1022163602539911e-07
2.0999999999999999e-11,-4.5357550665464297e-10,7.3010959931315678e-01,8.4005748624855216e-10,1.0071987805416248e-07
2.1250000000000001e-11,-3.5172658509597360e-10,7.3011018588001586e-01,7.0428378171940694e-10,9.2083739239830469e-08
2.1500000000000000e-11,-1.7999671680750342e-10,7.3011067402209462e-01,5.8092001914949370e-10,8.4217550197425806e-08
2.1749999999999999e-11,-3.4023724452134571e-11,7.3011107531906605e-01,4.7563383167231729e-10,7.7027329504069037e-08
2.1999999999999998e-11,4.6038064278690684e-11,7.3011140704241284e-01,3.9774325441932525e-10,7.0434168292562806e-08
2.2250000000000001e-11,7.0209357455128919e-11,7.3011169258184871e-01,3.5403862310155910e-10,6.4379779336670428e-08
2.2500000000000000e-11,6.8441482529775708e-11,7.3011195734170453e-01,3.4303378282581414e-10,5.8823826717320891e-08
2.2749999999999999e-11,6.2502525644320791e-11,7.3011222196112446e-01,3.5366887674067021e-10,5.3736363792848368e-08
2.2999999999999998e-11,5.6212306926233926e-11,7.3011249650334054e-01,3.6915899513622234e-10,4.9089847715461003e-08
2.3250000000000000e-11,4.3075080996186670e-11,7.3011277863990931e-01,3.7366365173891222e-10,4.4854044898014179e-08
2.3500000000000000e-11,1.9367012129975039e-11,7.3011305662324566e-01,3.5822416644635717e-10,4.0994908057814745e-08
2.3749999999999999e-11,-9.0704832304044808e-12,7.3011331545001235e-01,3.2322731934307873e-10,3.7476507043041109e-08
2.4000000000000001e-11,-3.0132950710080770e-11,7.3011354331164702e-01,2.7669768638066041e-10,3.4264128844619316e-08
2.4250000000000000e-11,-3.4317769064117053e-11,7.3011373567466609e-01,2.2976486697764512e-10,3.1326812985970941e-08
2.4499999999999999e-11,-2.1503619083037814e-11,7.3011389575969821e-01,1.9171465911369611e-10,2.8638422971864369e-08
2.4749999999999999e-11,-8.6822299298591192e-13,7.3011403192816071e-01,1.6679617930647539e-10,2.6177281477385251e-08
2.5000000000000001e-11,1.5276603704221812e-11,7.3011415368672861e-01,1.5377559952515837e-10,2.3924983782823230e-08
2.5250000000000000e-11,1.8973479126861271e-11,7.3011426824102910e-01,1.4782843960916802e-10,2.1865116286327459e-08
2.5499999999999999e-11,1.0538759154945706e-11,7.3011437886590924e-01,1.4343003377771273e-10,1.9982367196672101e-08
2.5749999999999998e-11,-2.9538055067524063e-12,7.3011448529006739e-01,1.3676857822155296e-10,1.8262160191368605e-08
2.6000000000000001e-11,-1.2844292043416084e-11,7.3011458538316520e-01,1.2676131518382972e-10,1.6690670712961665e-08
2.6250000000000000e-11,-1.4051453979782270e-11,7.3011467705554556e-01,1.1459811090925772e-10,1.5254987329291912e-08
2.6499999999999999e-11,-7.2523335247947466e-12,7.3011475948132820e-01,1.0241643094277966e-10,1.3943232002838665e-08
2.6749999999999998e-11,2.5900809385132473e-12,7.3011483330528226e-01,9.1950805582070191e-11,1.2744568561278730e-08
2.7000000000000000e-11,9.7867006552473134e-12,7.3011490005449242e-01,8.3789706933129486e-11,1.1649125252325784e-08
2.7250000000000000e-11,1.1146909177045012e-11,7.3011496128426390e-01,7.7418963822915106e-11,1.0647894538184321e-08
2.7499999999999999e-11,7.1560257104400429e-12,7.3011501796297806e-01,7.1807465642643997e-11,9.7326563244016244e-09
2.7749999999999998e-11,9.1562419327699313e-13,7.3011507034003165e-01,6.6093346396806793e-11,8.8959320330883848e-09
2.8000000000000000e-11,-4.0649871868169673e-12,7.3011511823120290e-01,5.9996820323425266e-11,8.1309479716890439e-09
2.8249999999999999e-11,-5.7652601550000940e-12,7.3011516146085054e-01,5.3820263910782650e-11,7.4315826432204113e-09
2.8499999999999999e-11,-4.3028835845319677e-12,7.3011520018707166e-01,4.8139983894505358e-11,6.7922887755371326e-09
2.8750000000000001e-11,-1.3079918950390815e-12,7.3011523496465647e-01,4.3424105718477669e-11,6.2080017612965564e-09
2.9000000000000000e-11,1.3141860205700288e-12,7.3011526657098291e-01,3.9790543086483377e-11,5.6740571828849119e-09
2.9250000000000002e-11,2.4191460997395831e-12,7.3011529573576461e-01,3.6995889713999615e-11,5.1861362572827112e-09
2.9500000000000002e-11,1.9724833208675244e-12,7.3011532293198766e-01,3.4607628010400831e-11,4.7402436510778466e-09
2.9750000000000001e-11,7.2778814981399363e-13,7.3011534831873415e-01,3.2231813115331842e-11,4.3327071245852751e-09
3.0000000000000000e-11,-4.0273997268796324e-13,7.3011537183083375e-01,2.9671968168630078e-11,3.9601808000387560e-09
3.0249999999999999e-11,-8.6528858255661491e-13,7.3011539334039677e-01,2.6959438951869031e-11,3.6196365507639628e-09
3.0499999999999998e-11,-6.3520727092106044e-13,7.3011541279932834e-01,2.4272967640392636e-11,3.3083376822521367e-09
3.0749999999999997e-11,-6.0331509016063713e-14,7.3011543030390036e-01,2.1813907574309645e-11,3.0237998070354492e-09
3.0999999999999996e-11,4.3822480694142790e-13,7.3011544607413770e-01,1.9706728497425550e-11,2.7637499310239545e-09
3.1250000000000002e-11,6.0767558357896212e-13,7.3011546038177921e-01,1.7963115474544406e-11,2.5260943219916091e-09
3.1500000000000001e-11,4.4146153468655835e-13,7.3011547347410022e-01,1.6506974671281163e-11,2.3089001067200457e-09
3.1750000000000000e-11,1.0706538954697863e-13,7.3011548552835648e-01,1.5230048880354161e-11,2.1103886545644585e-09
3.1999999999999999e-11,-1.9056121178793617e-13,7.3011549664677822e-01,1.4043065049535182e-11,1.9289341288405946e-09
3.2249999999999998e-11,-3.2037488514147242e-13,7.3011550688056093e-01,1.2900929133094254e-11,1.7630600649081808e-09
3.2499999999999998e-11,-2.6547599613459929e-13,7.3011551626233695e-01,1.1799861362182435e-11,1.6114297684136807e-09
3.2749999999999997e-11,-9.6982822677145229e-14,7.3011552483029063e-01,1.0758258859554077e-11,1.4728307077059254e-09
3.3000000000000002e-11,8.3486109599005277e-14,7.3011553263725437e-01,9.7962906410396020e-12,1.3461564156967988e-09
3.3250000000000002e-11,1.9634663969814803e-13,7.3011553974754562e-01,8.9240260145083626e-12,1.2303903987157732e-09
3.3500000000000001e-11,2.1074936032215585e-13,7.3011554622865948e-01,8.1397623313415896e-12,1.1245951168349433e-09
3.3750000000000000e-11,1.4363850439091211e-13,7.3011555214404744e-01,7.4345557875179982e-12,1.0279064758878890e-09
3.3999999999999999e-11,4.0639079962636511e-14,7.3011555754967139e-01,6.7976312266778602e-12,9.3953188274970765e-10
3.4249999999999998e-11,-4.8577008187940982e-14,7.3011556249379339e-01,6.2194911061589970e-12,8.5874894383776751e-10
3.4499999999999997e-11,-9.0495749446219986e-14,7.3011556701814073e-01,5.6924286269022680e-12,7.8490238853084818e-10
3.4749999999999996e-11,-7.7665072874348565e-14,7.3011557115903680e-01,5.2099224822699089e-12,7.1739838999004187e-10
3.5000000000000002e-11,-2.6968119633405308e-14,7.3011557494818136e-01,4.7663206088732607e-12,6.5569702636180171e-10
3.5250000000000001e-11,3.1494075812919502e-14,7.3011557841345209e-01,4.3572118175487938e-12,5.9930456893358105e-10
3.5500000000000000e-11,6.9373536644226470e-14,7.3011558158003043e-01,3.9799087172525741e-12,5.4776718678560959e-10
3.5749999999999999e-11,7.2408798365085022e-14,7.3011558447166980e-01,3.6333393509956960e-12,5.0066686476015017e-10
3.5999999999999998e-11,4.4817691966079212e-14,7.3011558711157876e-01,3.3171407190992136e-12,4.5761927365892200e-10
3.6249999999999998e-11,4.6382083010866957e-15,7.3011558952249800e-01,3.0304441676135350e-12,4.1827265956802602e-10
3.6499999999999997e-11,-2.6968774573521603e-14,7.3011559172601093e-01,2.7710716596488522e-12,3.8230663587993333e-10
3.6750000000000002e-11,-3.6462312788841951e-14,7.3011559374157997e-01,2.5356165782190167e-12,3.4943021908532596e-10
3.7000000000000001e-11,-2.3391983035317626e-14,7.3011559558593064e-01,2.3202797675796896e-12,3.1937899576702241e-10
3.7250000000000001e-11,1.4931923635766008e-15,7.3011559727315256e-01,2.1219206812397880e-12,2.9191189651764098e-10
3.7500000000000000e-11,2.3512591011601177e-14,7.3011559881544152e-01,1.9386931020452859e-12,2.6680816326237713e-10
3.7749999999999999e-11,3.2122407098246847e-14,7.3011560022405741e-01,1.7699796170134620e-12,2.4386502058578527e-10
3.7999999999999998e-11,2.5523902643433964e-14,7.3011560151001365e-01,1.6157491397127535e-12,2.2289613390117855e-10
3.8249999999999997e-11,9.9193614698780674e-15,7.3011560268422970e-01,1.4757844797491227e-12,2.0373068493470557e-10
3.8499999999999996e-11,-5.1995318302170558e-15,7.3011560375720497e-01,1.3491974798291742e-12,1.8621264102859787e-10
3.8750000000000002e-11,-1.2574325069964015e-14,7.3011560473851467e-01,1.2344429454597494e-12,1.7019992117908692e-10
3.9000000000000001e-11,-1.0437235162908787e-14,7.3011560563646016e-01,1.1297122811441366e-12,1.5556327006889648e-10
3.9250000000000000e-11,-2.2365606170915547e-15,7.3011560645805940e-01,1.0334345943429938e-12,1.4218493768708602e-10
3.9499999999999999e-11,6.2991656953327046e-15,7.3011560720934554e-01,9.4458888306733063e-13,1.2995732012433190e-10
3.9749999999999998e-11,1.0642800231123903e-14,7.3011560789578933e-01,8.6271475442506386e-13,1.1878180663663413e-10
3.9999999999999998e-11,9.5455947910447158e-15,7.3011560852263213e-01,7.8766868928328959e-13,1.0856789091755175e-10
4.0249999999999997e-11,4.8729624670714270e-15,7.3011560909500872e-01,7.1931350083232817e-13,9.9232582808784433e-11
4.0500000000000002e-11,-9.2919149530717735e-17,7.3011560961786914e-01,6.5730002734560063e-13,9.0699950838348680e-11
4.0750000000000001e-11,-2.7875134425481797e-15,7.3011561009580506e-01,6.0103426197019511e-13,8.2900722533235865e-11
4.1000000000000001e-11,-2.4730913954562861e-15,7.3011561053290697e-01,5.4979028827360127e-13,7.5771787663763940e-11
4.1250000000000000e-11,-2.2724140955412099e-16,7.3011561093272892e-01,5.0288200106354890e-13,6.9255655210376180e-11
4.1499999999999999e-11,2.1797037286242980e-15,7.3011561129836555e-01,4.5978537721537099e-13,6.3299846027690393e-11
4.1749999999999998e-11,3.3443942827306538e-15,7.3011561163258687e-01,4.2016998202357998e-13,5.7856356201547278e-11
4.1999999999999997e-11,2.9593107652565492e-15,7.3011561193796282e-01,3.8383988575026758e-13,5.2881185495513093e-11
4.2249999999999996e-11,1.6113346394172618e-15,7.3011561221693166e-01,3.5064413244380956e-13,4.8334006520892804e-11
4.2500000000000002e-11,2.7239082719602692e-16,7.3011561247180490e-01,3.2039982576603375e-13,4.4177889873184429e-11
4.2750000000000001e-11,-3.8339785476963040e-16,7.3011561270473391e-01,2.9286808063180260e-13,4.0379096152226225e-11
