time,"V(2)","V(22)","V(222)","V(2222)","V(R169)","V(R170)","V(R171)","V(R172)","V(R173)","V(R174)","V(R175)","V(R176)"
0.0000000000000000e+00,0.0000000000000000e+00,0.0000000000000000e+00,0.0000000000000000e+00,0.0000000000000000e+00,0.0000000000000000e+00,0.0000000000000000e+00,0.0000000000000000e+00,0.0000000000000000e+00,0.0000000000000000e+00,0.0000000000000000e+00,0.0000000000000000e+00,0.0000000000000000e+00
2.4999999999999999e-13,1.1713486392759782e-06,1.1713491894723750e-06,1.1713491894723750e-06,1.1713491894723750e-06,1.1520798929274565e-07,1.1520798929274565e-07,1.1520798929274565e-07,1.1520798929274565e-07,1.1520798929274565e-07,1.1520798929274565e-07,1.1520798929274565e-07,1.1520798929274550e-07
4.9999999999999999e-13,2.3462122637055880e-06,2.3462154884516934e-06,2.3462154884516934e-06,2.3462154884516934e-06,4.3705371731078417e-07,4.3705371731078417e-07,4.3705371731078417e-07,4.3705371731078417e-07,4.3705371731078417e-07,4.3705371731078417e-07,4.3705371731078417e-07,4.3705371731078385e-07
7.5000000000000004e-13,3.6318763232580669e-06,3.6318868606740511e-06,3.6318868606740511e-06,3.6318868606740511e-06,9.3268683237978296e-07,9.3268683237978296e-07,9.3268683237978296e-07,9.3268683237978296e-07,9.3268683237978296e-07,9.3268683237978296e-07,9.3268683237978296e-07,9.3268683237978296e-07
9.9999999999999998e-13,5.5723848683809505e-06,5.5724189968895355e-06,5.5724189968895355e-06,5.5724189968895355e-06,1.6350822817335782e-06,1.6350822817335782e-06,1.6350822817335782e-06,1.6350822817335782e-06,1.6350822817335782e-06,1.6350822817335782e-06,1.6350822817335782e-06,1.6350822817335790e-06
1.2499999999999999e-12,8.0144411533489856e-06,8.0145242817115894e-06,8.0145242817115894e-06,8.0145242817115894e-06,2.6056123905129999e-06,2.6056123905129999e-06,2.6056123905129999e-06,2.6056123905129999e-06,2.6056123905129999e-06,2.6056123905129999e-06,2.6056123905129999e-06,2.6056123905130004e-06
1.5000000000000001e-12,1.0971138413459627e-05,1.0971312454237394e-05,1.0971312454237394e-05,1.0971312454237394e-05,3.8792015976940027e-06,3.8792015976940027e-06,3.8792015976940027e-06,3.8792015976940027e-06,3.8792015976939976e-06,3.8792015976940027e-06,3.8792015976940027e-06,3.8792015976940061e-06
1.7500000000000000e-12,1.4399323584746074e-05,1.4399650741424216e-05,1.4399650741424216e-05,1.4399650741424216e-05,5.4787701131668514e-06,5.4787701131668514e-06,5.4787701131668514e-06,5.4787701131668514e-06,5.4787701131668497e-06,5.4787701131668514e-06,5.4787701131668514e-06,5.4787701131668454e-06
2.0000000000000000e-12,1.8211975788641856e-05,1.8212542484876046e-05,1.8212542484876046e-05,1.8212542484876046e-05,7.4083866599126967e-06,7.4083866599126967e-06,7.4083866599126967e-06,7.4083866599126967e-06,7.4083866599126832e-06,7.4083866599126967e-06,7.4083866599126967e-06,7.4083866599126865e-06
2.2499999999999999e-12,2.2290240237228421e-05,2.2291160270652009e-05,2.2291160270652009e-05,2.2291160270652009e-05,9.6505063984495652e-06,9.6505063984495652e-06,9.6505063984495652e-06,9.6505063984495652e-06,9.6505063984495584e-06,9.6505063984495652e-06,9.6505063984495550e-06,9.6505063984495669e-06
2.4999999999999998e-12,2.6496196688846232e-05,2.6497612684720369e-05,2.6497612684720369e-05,2.6497612684720369e-05,1.2166515350304726e-05,1.2166515350304726e-05,1.2166515350304726e-05,1.2166515350304726e-05,1.2166515350304720e-05,1.2166515350304726e-05,1.2166515350304720e-05,1.2166515350304742e-05
2.7499999999999998e-12,3.0685419666434845e-05,3.0687501963192359e-05,3.0687501963192359e-05,3.0687501963192359e-05,1.4899860708793138e-05,1.4899860708793162e-05,1.4899860708793138e-05,1.4899860708793138e-05,1.4899860708793152e-05,1.4899860708793162e-05,1.4899860708793142e-05,1.4899860708793177e-05
3.0000000000000001e-12,3.4718534766514899e-05,3.4721477040507934e-05,3.4721477040507934e-05,3.4721477040507921e-05,1.7780978918279017e-05,1.7780978918279011e-05,1.7780978918279017e-05,1.7780978918279014e-05,1.7780978918279014e-05,1.7780978918279011e-05,1.7780978918279024e-05,1.7780978918279021e-05
3.2500000000000001e-12,3.8471129649113939e-05,3.8475140868895176e-05,3.8475140868895176e-05,3.8475140868895216e-05,2.0733215647146359e-05,2.0733215647146339e-05,2.0733215647146359e-05,2.0733215647146359e-05,2.0733215647146380e-05,2.0733215647146325e-05,2.0733215647146373e-05,2.0733215647146366e-05
3.5000000000000000e-12,4.1841547451784658e-05,4.1846840125608654e-05,4.1846840125608654e-05,4.1846840125608667e-05,2.3678990715228767e-05,2.3678990715228753e-05,2.3678990715228767e-05,2.3678990715228760e-05,2.3678990715228767e-05,2.3678990715228753e-05,2.3678990715228767e-05,2.3678990715228763e-05
3.7500000000000000e-12,4.4756266827805066e-05,4.4763041941568685e-05,4.4763041941568685e-05,4.4763041941568652e-05,2.6545560292302013e-05,2.6545560292302033e-05,2.6545560292302013e-05,2.6545560292302026e-05,2.6545560292302040e-05,2.6545560292302026e-05,2.6545560292302040e-05,2.6545560292302057e-05
3.9999999999999999e-12,4.7172751384361335e-05,4.7181180877447820e-05,4.7181180877447820e-05,4.7181180877447820e-05,2.9269870401429514e-05,2.9269870401429494e-05,2.9269870401429514e-05,2.9269870401429514e-05,2.9269870401429507e-05,2.9269870401429507e-05,2.9269870401429541e-05,2.9269870401429527e-05
4.2499999999999999e-12,4.9079826412990749e-05,4.9090034453241535e-05,4.9090034453241535e-05,4.9090034453241508e-05,3.1802154293292205e-05,3.1802154293292205e-05,3.1802154293292205e-05,3.1802154293292191e-05,3.1802154293292232e-05,3.1802154293292191e-05,3.1802154293292184e-05,3.1802154293292218e-05
4.4999999999999998e-12,5.0495804486378518e-05,5.0507849128268861e-05,5.0507849128268861e-05,5.0507849128268874e-05,3.4108093682247384e-05,3.4108093682247357e-05,3.4108093682247384e-05,3.4108093682247370e-05,3.4108093682247363e-05,3.4108093682247330e-05,3.4108093682247391e-05,3.4108093682247343e-05
4.7499999999999998e-12,5.1464723074212465e-05,5.1478580069056615e-05,5.1478580069056615e-05,5.1478580069056493e-05,3.6169521442373816e-05,3.6169521442373816e-05,3.6169521442373816e-05,3.6169521442373789e-05,3.6169521442373857e-05,3.6169521442373816e-05,3.6169521442373857e-05,3.6169521442373810e-05
4.9999999999999997e-12,5.2051165072532961e-05,5.2066715614715888e-05,5.2066715614715888e-05,5.2066715614716016e-05,3.7983781926800556e-05,3.7983781926800576e-05,3.7983781926800556e-05,3.7983781926800549e-05,3.7983781926800603e-05,3.7983781926800630e-05,3.7983781926800576e-05,3.7983781926800576e-05
5.2499999999999996e-12,5.1162848457737705e-05,5.1179871933991174e-05,5.1179871933991188e-05,5.1179871933991093e-05,3.9446765050062264e-05,3.9446765050062203e-05,3.9446765050062264e-05,3.9446765050062196e-05,3.9446765050062270e-05,3.9446765050062223e-05,3.9446765050062223e-05,3.9446765050062203e-05
5.4999999999999996e-12,4.9995695722329280e-05,5.0013867585702123e-05,5.0013867585702089e-05,5.0013867585702130e-05,4.0484036323390714e-05,4.0484036323390666e-05,4.0484036323390741e-05,4.0484036323390673e-05,4.0484036323390707e-05,4.0484036323390666e-05,4.0484036323390700e-05,4.0484036323390666e-05
5.7499999999999995e-12,4.8431561005231613e-05,4.8450456603681404e-05,4.8450456603681540e-05,4.8450456603681343e-05,4.1140333515107576e-05,4.1140333515107542e-05,4.1140333515107637e-05,4.1140333515107495e-05,4.1140333515107535e-05,4.1140333515107488e-05,4.1140333515107542e-05,4.1140333515107522e-05
6.0000000000000003e-12,4.6410850551769333e-05,4.6429955830190115e-05,4.6429955830189966e-05,4.6429955830190203e-05,4.1430491631001346e-05,4.1430491631001163e-05,4.1430491631001292e-05,4.1430491631001237e-05,4.1430491631001332e-05,4.1430491631001224e-05,4.1430491631001332e-05,4.1430491631001231e-05
6.2500000000000002e-12,4.3927400854002675e-05,4.3946129154612937e-05,4.3946129154613168e-05,4.3946129154612809e-05,4.1355314835916499e-05,4.1355314835916363e-05,4.1355314835916499e-05,4.1355314835916289e-05,4.1355314835916519e-05,4.1355314835916350e-05,4.1355314835916513e-05,4.1355314835916350e-05
6.5000000000000002e-12,4.1020588741317962e-05,4.1038302167154568e-05,4.1038302167154060e-05,4.1038302167154365e-05,4.0913727490442608e-05,4.0913727490442330e-05,4.0913727490442608e-05,4.0913727490442405e-05,4.0913727490442588e-05,4.0913727490442391e-05,4.0913727490442629e-05,4.0913727490442432e-05
6.7500000000000001e-12,3.7765271648000781e-05,3.7781305554942638e-05,3.7781305554943323e-05,3.7781305554943038e-05,4.0111264748901407e-05,4.0111264748901129e-05,4.0111264748901427e-05,4.0111264748901088e-05,4.0111264748901393e-05,4.0111264748901075e-05,4.0111264748901427e-05,4.0111264748901163e-05
7.0000000000000001e-12,3.4260731053066106e-05,3.4274420351104575e-05,3.4274420351103810e-05,3.4274420351104094e-05,3.8965077874652294e-05,3.8965077874651786e-05,3.8965077874652308e-05,3.8965077874651820e-05,3.8965077874652233e-05,3.8965077874651813e-05,3.8965077874652274e-05,3.8965077874651860e-05
7.2500000000000000e-12,3.0619658770383065e-05,3.0630364844524597e-05,3.0630364844525302e-05,3.0630364844525349e-05,3.7505886063392499e-05,3.7505886063391903e-05,3.7505886063392553e-05,3.7505886063391903e-05,3.7505886063392472e-05,3.7505886063391876e-05,3.7505886063392547e-05,3.7505886063391937e-05
7.5000000000000000e-12,2.6958020336955937e-05,2.6965157527225121e-05,2.6965157527224531e-05,2.6965157527224368e-05,3.5777427823947147e-05,3.5777427823946307e-05,3.5777427823947160e-05,3.5777427823946266e-05,3.5777427823947154e-05,3.5777427823946293e-05,3.5777427823947127e-05,3.5777427823946259e-05
7.7499999999999991e-12,2.3386386972052414e-05,2.3389447662712305e-05,2.3389447662713176e-05,2.3389447662713369e-05,3.3834068879781343e-05,3.3834068879780231e-05,3.3834068879781329e-05,3.3834068879780211e-05,3.3834068879781370e-05,3.3834068879780245e-05,3.3834068879781329e-05,3.3834068879780157e-05
7.9999999999999998e-12,2.0003084644793976e-05,2.0001662095133338e-05,2.0001662095131928e-05,2.0001662095131966e-05,3.1737227799670753e-05,3.1737227799669249e-05,3.1737227799670740e-05,3.1737227799669276e-05,3.1737227799670733e-05,3.1737227799669296e-05,3.1737227799670740e-05,3.1737227799669269e-05
8.2500000000000006e-12,1.6889293677413758e-05,1.6883101783646799e-05,1.6883101783648154e-05,1.6883101783648239e-05,2.9551248970121336e-05,2.9551248970119429e-05,2.9551248970121384e-05,2.9551248970119422e-05,2.9551248970121350e-05,2.9551248970119446e-05,2.9551248970121329e-05,2.9551248970119442e-05
8.4999999999999997e-12,1.4106061017971732e-05,1.4094950243219461e-05,1.4094950243218168e-05,1.4094950243218177e-05,2.7339262511374695e-05,2.7339262511372195e-05,2.7339262511374722e-05,2.7339262511372212e-05,2.7339262511374709e-05,2.7339262511372181e-05,2.7339262511374709e-05,2.7339262511372215e-05
8.7500000000000005e-12,1.1693064515294414e-05,1.1677033284231642e-05,1.1677033284232792e-05,1.1677033284232528e-05,2.5159462055089432e-05,2.5159462055086271e-05,2.5159462055089435e-05,2.5159462055086261e-05,2.5159462055089428e-05,2.5159462055086261e-05,2.5159462055089439e-05,2.5159462055086355e-05
8.9999999999999996e-12,9.6688905469631545e-06,9.6480914949517024e-06,9.6480914949506317e-06,9.6480914949508401e-06,2.3062103381820320e-05,2.3062103381816332e-05,2.3062103381820368e-05,2.3062103381816336e-05,2.3062103381820354e-05,2.3062103381816336e-05,2.3062103381820320e-05,2.3062103381816366e-05
9.2500000000000004e-12,8.0325449335582930e-06,8.0072855417840598e-06,8.0072855417848594e-06,8.0072855417848560e-06,2.1087403319341110e-05,2.1087403319336123e-05,2.1087403319341110e-05,2.1087403319336130e-05,2.1087403319341130e-05,2.1087403319336177e-05,2.1087403319341124e-05,2.1087403319336214e-05
9.4999999999999995e-12,6.7659027380460052e-06,6.7366400803169374e-06,6.7366400803161742e-06,6.7366400803162361e-06,1.9264402295724562e-05,1.9264402295718450e-05,1.9264402295724569e-05,1.9264402295718409e-05,1.9264402295724569e-05,1.9264402295718450e-05,1.9264402295724583e-05,1.9264402295718498e-05
9.7500000000000003e-12,5.8368068726905590e-06,5.8041364396765030e-06,5.8041364396775711e-06,5.8041364396775829e-06,1.7610757095472021e-05,1.7610757095464604e-05,1.7610757095472031e-05,1.7610757095464604e-05,1.7610757095472031e-05,1.7610757095464635e-05,1.7610757095472034e-05,1.7610757095464597e-05
9.9999999999999994e-12,5.2025421227304980e-06,5.1671809587956570e-06,5.1671809587947524e-06,5.1671809587948845e-06,1.6133353865725608e-05,1.6133353865716680e-05,1.6133353865725611e-05,1.6133353865716693e-05,1.6133353865725591e-05,1.6133353865716697e-05,1.6133353865725604e-05,1.6133353865716731e-05
1.0250000000000000e-11,4.8134361701258327e-06,4.7762008352968375e-06,4.7762008352972635e-06,4.7762008352971932e-06,1.4829578958583825e-05,1.4829578958573279e-05,1.4829578958583820e-05,1.4829578958573250e-05,1.4829578958583843e-05,1.4829578958573276e-05,1.4829578958583840e-05,1.4829578958573315e-05
1.0499999999999999e-11,4.6163700919831194e-06,4.5781502231640483e-06,4.5781502231638856e-06,4.5781502231638662e-06,1.3689055230554062e-05,1.3689055230541714e-05,1.3689055230554063e-05,1.3689055230541725e-05,1.3689055230554062e-05,1.3689055230541729e-05,1.3689055230554072e-05,1.3689055230541752e-05
1.0750000000000000e-11,4.5580162136650891e-06,4.5197446848191435e-06,4.5197446848191562e-06,4.5197446848190944e-06,1.2695642975391562e-05,1.2695642975377323e-05,1.2695642975391555e-05,1.2695642975377310e-05,1.2695642975391545e-05,1.2695642975377344e-05,1.2695642975391587e-05,1.2695642975377379e-05
1.0999999999999999e-11,4.5876600077411399e-06,4.5502808618926662e-06,4.5502808618927602e-06,4.5502808618928822e-06,1.1829514174701280e-05,1.1829514174685118e-05,1.1829514174701253e-05,1.1829514174685108e-05,1.1829514174701261e-05,1.1829514174685125e-05,1.1829514174701271e-05,1.1829514174685206e-05
1.1250000000000000e-11,4.6595036791474002e-06,4.6239391172419264e-06,4.6239391172416274e-06,4.6239391172416486e-06,1.1069132726415398e-05,1.1069132726397347e-05,1.1069132726415382e-05,1.1069132726397349e-05,1.1069132726415374e-05,1.1069132726397371e-05,1.1069132726415401e-05,1.1069132726397466e-05
1.1499999999999999e-11,4.7343905552850686e-06,4.7015083143803628e-06,4.7015083143807600e-06,4.7015083143807821e-06,1.0393007198514105e-05,1.0393007198494364e-05,1.0393007198514132e-05,1.0393007198494383e-05,1.0393007198514100e-05,1.0393007198494385e-05,1.0393007198514148e-05,1.0393007198494495e-05
1.1750000000000000e-11,4.7809295009619255e-06,4.7515119403735490e-06,4.7515119403731661e-06,4.7515119403730382e-06,9.7811221720747471e-06,9.7811221720535983e-06,9.7811221720747589e-06,9.7811221720536017e-06,9.7811221720747403e-06,9.7811221720536085e-06,9.7811221720747708e-06,9.7811221720536932e-06
1.2000000000000001e-11,4.7760352976057617e-06,4.7507514419148132e-06,4.7507514419147980e-06,4.7507514419151012e-06,9.2159950858987759e-06,9.2159950858766802e-06,9.2159950858987979e-06,9.2159950858766869e-06,9.2159950858987267e-06,9.2159950858766971e-06,9.2159950858987877e-06,9.2159950858768208e-06
1.2250000000000000e-11,4.7049324183772110e-06,4.6843140900090949e-06,4.6843140900094142e-06,4.6843140900090957e-06,8.6833440757290390e-06,8.6833440757067129e-06,8.6833440757290542e-06,8.6833440757067637e-06,8.6833440757290068e-06,8.6833440757067739e-06,8.6833440757290542e-06,8.6833440757068840e-06
1.2500000000000000e-11,4.5606944529026424e-06,4.5451174719334535e-06,4.5451174719332087e-06,4.5451174719333366e-06,8.1723856850658673e-06,8.1723856850443493e-06,8.1723856850659080e-06,8.1723856850443866e-06,8.1723856850658250e-06,8.1723856850443646e-06,8.1723856850658911e-06,8.1723856850444510e-06
1.2750000000000000e-11,4.3434087176820927e-06,4.3330799614555950e-06,4.3330799614556738e-06,4.3330799614558212e-06,7.6758075565489554e-06,7.6758075565295160e-06,7.6758075565490029e-06,7.6758075565295516e-06,7.6758075565489148e-06,7.6758075565295313e-06,7.6758075565489656e-06,7.6758075565295838e-06
1.3000000000000000e-11,4.0590651114221934e-06,4.0540160160337366e-06,4.0540160160337519e-06,4.0540160160336180e-06,7.1894792447957960e-06,7.1894792447800810e-06,7.1894792447958485e-06,7.1894792447801199e-06,7.1894792447957706e-06,7.1894792447801131e-06,7.1894792447958010e-06,7.1894792447801335e-06
1.3249999999999999e-11,3.7182704406678562e-06,3.7183572957953119e-06,3.7183572957952856e-06,3.7183572957952683e-06,6.7119739873601898e-06,6.7119739873502685e-06,6.7119739873602211e-06,6.7119739873502922e-06,6.7119739873601517e-06,6.7119739873502939e-06,6.7119739873601830e-06,6.7119739873502634e-06
1.3500000000000000e-11,3.3348851707272695e-06,3.3397963097659311e-06,3.3397963097660090e-06,3.3397963097658781e-06,6.2439762336152385e-06,6.2439762336136071e-06,6.2439762336152681e-06,6.2439762336136588e-06,6.2439762336152004e-06,6.2439762336136478e-06,6.2439762336152292e-06,6.2439762336136122e-06
1.3749999999999999e-11,2.9246701216024408e-06,2.9339398447887682e-06,2.9339398447888783e-06,2.9339398447891070e-06,5.7876451418246074e-06,5.7876451418342483e-06,5.7876451418246099e-06,5.7876451418342864e-06,5.7876451418245650e-06,5.7876451418342661e-06,5.7876451418245743e-06,5.7876451418342796e-06
1.4000000000000000e-11,2.5040174784492965e-06,2.5170462696763865e-06,2.5170462696763344e-06,2.5170462696759190e-06,5.3459946520156623e-06,5.3459946520400814e-06,5.3459946520156928e-06,5.3459946520401034e-06,5.3459946520156166e-06,5.3459946520400975e-06,5.3459946520156597e-06,5.3459946520400568e-06
1.4249999999999999e-11,2.0888250725258293e-06,2.1049053892474538e-06,2.1049053892474149e-06,2.1049053892481014e-06,4.9223378286851894e-06,4.9223378287283601e-06,4.9223378286852106e-06,4.9223378287283821e-06,4.9223378286851589e-06,4.9223378287283686e-06,4.9223378286851843e-06,4.9223378287283669e-06
1.4500000000000000e-11,1.6935565405764052e-06,1.7119031789532690e-06,1.7119031789533724e-06,1.7119031789524394e-06,4.5198286279799850e-06,4.5198286280464127e-06,4.5198286279799816e-06,4.5198286280464187e-06,4.5198286279799393e-06,4.5198286280464212e-06,4.5198286279799689e-06,4.5198286280464720e-06
1.4750000000000001e-11,1.3305137988637643e-06,1.3502975795160002e-06,1.3502975795157148e-06,1.3502975795171683e-06,4.1411196029220417e-06,4.1411196030167180e-06,4.1411196029220231e-06,4.1411196030167358e-06,4.1411196029220138e-06,4.1411196030167265e-06,4.1411196029220248e-06,4.1411196030167731e-06
1.5000000000000000e-11,1.0093331369244672e-06,1.0297164361035498e-06,1.0297164361034913e-06,1.0297164361019137e-06,3.7881405808334114e-06,3.7881405809618292e-06,3.7881405808333894e-06,3.7881405809618390e-06,3.7881405808333767e-06,3.7881405809618419e-06,3.7881405808334008e-06,3.7881405809618949e-06
1.5249999999999999e-11,7.3670275513880584e-07,7.5687524389834312e-07,7.5687524389835911e-07,7.5687524390040099e-07,3.4619919689527157e-06,3.4619919691207543e-06,3.4619919689527026e-06,3.4619919691207488e-06,3.4619919689526958e-06,3.4619919691207315e-06,3.4619919689526996e-06,3.4619919691208234e-06
1.5499999999999998e-11,5.1628813474477064e-07,5.3550100210607450e-07,5.3550100210615518e-07,5.3550100210396422e-07,3.1629376634405344e-06,3.1629376636543412e-06,3.1629376634405183e-06,3.1629376636543450e-06,3.1629376634405204e-06,3.1629376636543463e-06,3.1629376634405191e-06,3.1629376636544144e-06
1.5750000000000001e-11,3.4884245081763327e-07,3.6643939484366712e-07,3.6643939484322544e-07,3.6643939484555187e-07,2.8904768135580111e-06,2.8904768138239972e-06,2.8904768135579903e-06,2.8904768138240125e-06,2.8904768135579958e-06,2.8904768138240061e-06,2.8904768135579971e-06,2.8904768138240599e-06
1.6000000000000000e-11,2.3247240163924183e-07,2.4791578327908763e-07,2.4791578327952285e-07,2.4791578327757451e-07,2.6434708886763097e-06,2.6434708890009698e-06,2.6434708886762923e-06,2.6434708890009859e-06,2.6434708886763004e-06,2.6434708890009846e-06,2.6434708886762961e-06,2.6434708890011023e-06
1.6249999999999999e-11,1.6302531077709903e-07,1.7591608445926755e-07,1.7591608445896029e-07,1.7591608446074038e-07,2.4203023265673555e-06,2.4203023269571368e-06,2.4203023265673483e-06,2.4203023269571401e-06,2.4203023265673576e-06,2.4203023269571351e-06,2.4203023265673483e-06,2.4203023269572261e-06
