time,"V(2)","V(22)","V(222)","V(2222)","V(R169)","V(R170)","V(R171)","V(R172)","V(R173)","V(R174)","V(R175)","V(R176)"
0.0000000000000000e+00,0.0000000000000000e+00,0.0000000000000000e+00,0.0000000000000000e+00,0.0000000000000000e+00,0.0000000000000000e+00,0.0000000000000000e+00,0.0000000000000000e+00,0.0000000000000000e+00,0.0000000000000000e+00,0.0000000000000000e+00,0.0000000000000000e+00,0.0000000000000000e+00
2.4999999999999999e-13,5.8567431963585458e-07,5.8567459473405349e-07,5.8567459473405349e-07,5.8567459473405349e-07,5.7603994646181817e-08,5.7603994646181817e-08,5.7603994646181817e-08,5.7603994646181817e-08,5.7603994646181817e-08,5.7603994646181817e-08,5.7603994646181817e-08,5.7603994646181771e-08
4.9999999999999999e-13,1.1731061318426705e-06,1.1731077442157278e-06,1.1731077442157278e-06,1.1731077442157278e-06,2.1852685865413964e-07,2.1852685865413964e-07,2.1852685865413964e-07,2.1852685865413964e-07,2.1852685865413964e-07,2.1852685865413964e-07,2.1852685865413964e-07,2.1852685865413948e-07
7.5000000000000004e-13,2.4033699738092036e-06,2.4033765797920254e-06,2.4033765797920254e-06,2.4033765797920254e-06,6.2726628019354320e-07,6.2726628019354320e-07,6.2726628019354320e-07,6.2726628019354320e-07,6.2726628019354320e-07,6.2726628019354320e-07,6.2726628019354320e-07,6.2726628019354341e-07
9.9999999999999998e-13,4.0164562760876321e-06,4.0164783339517453e-06,4.0164783339517453e-06,4.0164783339517453e-06,1.2262805623941541e-06,1.2262805623941541e-06,1.2262805623941541e-06,1.2262805623941541e-06,1.2262805623941541e-06,1.2262805623941541e-06,1.2262805623941541e-06,1.2262805623941518e-06
1.2499999999999999e-12,6.2077386910290386e-06,6.2077970443664154e-06,6.2077970443664154e-06,6.2077970443664154e-06,2.0627433414376371e-06,2.0627433414376371e-06,2.0627433414376371e-06,2.0627433414376371e-06,2.0627433414376371e-06,2.0627433414376371e-06,2.0627433414376371e-06,2.0627433414376333e-06
1.5000000000000001e-12,8.9071154634286161e-06,8.9072437729005925e-06,8.9072437729005925e-06,8.9072437729005925e-06,3.1848029993780079e-06,3.1848029993780079e-06,3.1848029993780079e-06,3.1848029993780079e-06,3.1848029993780079e-06,3.1848029993780079e-06,3.1848029993780079e-06,3.1848029993780007e-06
1.7500000000000000e-12,1.2099556678957651e-05,1.2099807002587328e-05,1.2099807002587328e-05,1.2099807002587328e-05,4.6213818606465828e-06,4.6213818606465828e-06,4.6213818606465828e-06,4.6213818606465828e-06,4.6213818606465828e-06,4.6213818606465828e-06,4.6213818606465828e-06,4.6213818606465769e-06
2.0000000000000000e-12,1.5719975366358403e-05,1.5720422017716283e-05,1.5720422017716283e-05,1.5720422017716283e-05,6.3859743916793241e-06,6.3859743916793241e-06,6.3859743916793241e-06,6.3859743916793241e-06,6.3859743916793241e-06,6.3859743916793241e-06,6.3859743916793241e-06,6.3859743916793351e-06
2.2499999999999999e-12,1.9665433692399656e-05,1.9666176782130192e-05,1.9666176782130192e-05,1.9666176782130192e-05,8.4718425342281376e-06,8.4718425342281376e-06,8.4718425342281376e-06,8.4718425342281376e-06,8.4718425342281376e-06,8.4718425342281376e-06,8.4718425342281376e-06,8.4718425342281494e-06
2.4999999999999998e-12,2.3807544142303669e-05,2.3808711881854212e-05,2.3808711881854212e-05,2.3808711881854212e-05,1.0850906879319671e-05,1.0850906879319671e-05,1.0850906879319671e-05,1.0850906879319671e-05,1.0850906879319671e-05,1.0850906879319671e-05,1.0850906879319671e-05,1.0850906879319676e-05
2.7499999999999998e-12,2.8005133856721280e-05,2.8006882727938643e-05,2.8006882727938643e-05,2.8006882727938643e-05,1.3475584034380130e-05,1.3475584034380130e-05,1.3475584034380130e-05,1.3475584034380130e-05,1.3475584034380130e-05,1.3475584034380130e-05,1.3475584034380130e-05,1.3475584034380132e-05
3.0000000000000001e-12,3.2116302895391544e-05,3.2118814905668186e-05,3.2118814905668186e-05,3.2118814905668186e-05,1.6282815818254590e-05,1.6282815818254590e-05,1.6282815818254590e-05,1.6282815818254590e-05,1.6282815818254590e-05,1.6282815818254590e-05,1.6282815818254590e-05,1.6282815818254583e-05
3.2500000000000001e-12,3.6009157886594661e-05,3.6012634358382894e-05,3.6012634358382894e-05,3.6012634358382894e-05,1.9199493287322353e-05,1.9199493287322353e-05,1.9199493287322353e-05,1.9199493287322353e-05,1.9199493287322353e-05,1.9199493287322353e-05,1.9199493287322353e-05,1.9199493287322357e-05
3.5000000000000000e-12,3.9570664229123251e-05,3.9575315900827483e-05,3.9575315900827483e-05,3.9575315900827483e-05,2.2148499185696531e-05,2.2148499185696531e-05,2.2148499185696531e-05,2.2148499185696531e-05,2.2148499185696531e-05,2.2148499185696531e-05,2.2148499185696531e-05,2.2148499185696572e-05
3.7500000000000000e-12,4.2713232818394300e-05,4.2719266437088520e-05,4.2719266437088520e-05,4.2719266437088520e-05,2.5054671508184748e-05,2.5054671508184748e-05,2.5054671508184748e-05,2.5054671508184748e-05,2.5054671508184748e-05,2.5054671508184748e-05,2.5054671508184748e-05,2.5054671508184769e-05
3.9999999999999999e-12,4.5378834784635038e-05,4.5386436812960723e-05,4.5386436812960723e-05,4.5386436812960723e-05,2.7850111351207896e-05,2.7850111351207896e-05,2.7850111351207896e-05,2.7850111351207896e-05,2.7850111351207896e-05,2.7850111351207896e-05,2.7850111351207896e-05,2.7850111351207900e-05
4.2499999999999999e-12,4.7540614577202615e-05,4.7549933068772089e-05,4.7549933068772089e-05,4.7549933068772089e-05,3.0478408351637730e-05,3.0478408351637730e-05,3.0478408351637730e-05,3.0478408351637730e-05,3.0478408351637730e-05,3.0478408351637730e-05,3.0478408351637730e-05,3.0478408351637750e-05
4.4999999999999998e-12,4.9202141128202407e-05,4.9213267194172594e-05,4.9213267194172594e-05,4.9213267194172594e-05,3.2897519991991449e-05,3.2897519991991449e-05,3.2897519991991449e-05,3.2897519991991449e-05,3.2897519991991449e-05,3.2897519991991449e-05,3.2897519991991449e-05,3.2897519991991455e-05
4.7499999999999998e-12,5.0394589458808769e-05,5.0407540002076841e-05,5.0407540002076841e-05,5.0407540002076841e-05,3.5081203566484089e-05,3.5081203566484089e-05,3.5081203566484089e-05,3.5081203566484089e-05,3.5081203566484089e-05,3.5081203566484089e-05,3.5081203566484089e-05,3.5081203566484096e-05
4.9999999999999997e-12,5.1172269751883649e-05,5.1186973245297769e-05,5.1186973245297769e-05,5.1186973245297769e-05,3.7019047688715789e-05,3.7019047688715789e-05,3.7019047688715789e-05,3.7019047688715789e-05,3.7019047688715789e-05,3.7019047688715789e-05,3.7019047688715789e-05,3.7019047688715755e-05
5.2499999999999996e-12,5.1021332443636914e-05,5.1037619177753983e-05,5.1037619177753983e-05,5.1037619177753983e-05,3.8657669492514533e-05,3.8657669492514533e-05,3.8657669492514533e-05,3.8657669492514533e-05,3.8657669492514533e-05,3.8657669492514533e-05,3.8657669492514533e-05,3.8657669492514574e-05
5.4999999999999996e-12,4.9993597768519492e-05,5.0011195163232830e-05,5.0011195163232830e-05,5.0011195163232830e-05,3.9907796690760918e-05,3.9907796690760918e-05,3.9907796690760918e-05,3.9907796690760918e-05,3.9907796690760918e-05,3.9907796690760918e-05,3.9907796690760918e-05,3.9907796690760925e-05
5.7499999999999995e-12,4.8627954042254832e-05,4.8646487498065551e-05,4.8646487498065551e-05,4.8646487498065551e-05,4.0754580923231180e-05,4.0754580923231180e-05,4.0754580923231180e-05,4.0754580923231180e-05,4.0754580923231180e-05,4.0754580923231180e-05,4.0754580923231180e-05,4.0754580923231187e-05
6.0000000000000003e-12,4.6835531456972934e-05,4.6854531620307287e-05,4.6854531620307287e-05,4.6854531620307287e-05,4.1227808576982263e-05,4.1227808576982263e-05,4.1227808576982263e-05,4.1227808576982263e-05,4.1227808576982263e-05,4.1227808576982263e-05,4.1227808576982263e-05,4.1227808576982344e-05
6.2500000000000002e-12,4.4583451381368050e-05,4.4602367895785062e-05,4.4602367895785062e-05,4.4602367895785062e-05,4.1335299237334072e-05,4.1335299237333998e-05,4.1335299237334072e-05,4.1335299237333998e-05,4.1335299237334072e-05,4.1335299237333998e-05,4.1335299237334072e-05,4.1335299237334079e-05
6.5000000000000002e-12,4.1888320476169422e-05,4.1906541064293346e-05,4.1906541064293346e-05,4.1906541064293346e-05,4.1076917167007311e-05,4.1076917167007087e-05,4.1076917167007311e-05,4.1076917167007087e-05,4.1076917167007311e-05,4.1076917167007087e-05,4.1076917167007311e-05,4.1076917167007019e-05
6.7500000000000001e-12,3.8807255873208949e-05,3.8824129264497170e-05,3.8824129264497170e-05,3.8824129264497170e-05,4.0454892123460835e-05,4.0454892123460462e-05,4.0454892123460835e-05,4.0454892123460462e-05,4.0454892123460835e-05,4.0454892123460462e-05,4.0454892123460835e-05,4.0454892123460394e-05
7.0000000000000001e-12,3.5427327029125959e-05,3.5442188356521627e-05,3.5442188356521627e-05,3.5442188356521627e-05,3.9480567315537438e-05,3.9480567315536990e-05,3.9480567315537438e-05,3.9480567315536990e-05,3.9480567315537438e-05,3.9480567315536990e-05,3.9480567315537438e-05,3.9480567315536848e-05
7.2500000000000000e-12,3.1854520590375770e-05,3.1866718001365688e-05,3.1866718001365688e-05,3.1866718001365688e-05,3.8177877972766595e-05,3.8177877972765931e-05,3.8177877972766595e-05,3.8177877972765931e-05,3.8177877972766595e-05,3.8177877972765931e-05,3.8177877972766595e-05,3.8177877972765864e-05
7.5000000000000000e-12,2.8203165232369221e-05,2.8212086589479849e-05,2.8212086589479849e-05,2.8212086589479849e-05,3.6584052947408841e-05,3.6584052947407961e-05,3.6584052947408841e-05,3.6584052947407961e-05,3.6584052947408841e-05,3.6584052947407961e-05,3.6584052947408841e-05,3.6584052947408259e-05
7.7499999999999991e-12,2.4586529333254995e-05,2.4591627998619316e-05,2.4591627998619316e-05,2.4591627998619316e-05,3.4748144355607681e-05,3.4748144355606800e-05,3.4748144355607681e-05,3.4748144355606800e-05,3.4748144355607681e-05,3.4748144355606800e-05,3.4748144355607681e-05,3.4748144355606949e-05
7.9999999999999998e-12,2.1109061487211265e-05,2.1109880282616732e-05,2.1109880282616732e-05,2.1109880282616732e-05,3.2728044343481241e-05,3.2728044343480069e-05,3.2728044343481241e-05,3.2728044343480069e-05,3.2728044343481241e-05,3.2728044343480069e-05,3.2728044343481241e-05,3.2728044343480076e-05
8.2500000000000006e-12,1.7860514839920030e-05,1.7856707343110686e-05,1.7856707343110686e-05,1.7856707343110686e-05,3.0586634388667427e-05,3.0586634388665672e-05,3.0586634388667427e-05,3.0586634388665672e-05,3.0586634388667427e-05,3.0586634388665672e-05,3.0586634388667427e-05,3.0586634388665821e-05
8.4999999999999997e-12,1.4912003026525952e-05,1.4903351417171434e-05,1.4903351417171434e-05,1.4903351417171434e-05,2.8387651744536965e-05,2.8387651744534919e-05,2.8387651744536965e-05,2.8387651744534919e-05,2.8387651744536965e-05,2.8387651744534919e-05,2.8387651744536965e-05,2.8387651744535068e-05
8.7500000000000005e-12,1.2313888445472645e-05,1.2300317167470585e-05,1.2300317167470585e-05,1.2300317167470585e-05,2.6191758287037952e-05,2.6191758287035323e-05,2.6191758287037952e-05,2.6191758287035323e-05,2.6191758287037952e-05,2.6191758287035323e-05,2.6191758287037952e-05,2.6191758287035180e-05
8.9999999999999996e-12,1.0095303209968552e-05,1.0076887793337062e-05,1.0076887793337062e-05,1.0076887793337062e-05,2.4053178722275306e-05,2.4053178722271799e-05,2.4053178722275306e-05,2.4053178722271799e-05,2.4053178722275306e-05,2.4053178722271799e-05,2.4053178722275306e-05,2.4053178722271657e-05
9.2500000000000004e-12,8.2650434190934444e-06,8.2420139221078615e-06,8.2420139221078615e-06,8.2420139221078615e-06,2.2017149354412179e-05,2.2017149354407798e-05,2.2017149354412179e-05,2.2017149354407798e-05,2.2017149354412179e-05,2.2017149354407798e-05,2.2017149354412179e-05,2.2017149354407801e-05
9.4999999999999995e-12,6.8135495146332824e-06,6.7862882147862850e-06,6.7862882147862850e-06,6.7862882147862850e-06,2.0118298811372248e-05,2.0118298811366699e-05,2.0118298811372248e-05,2.0118298811366699e-05,2.0118298811372248e-05,2.0118298811366699e-05,2.0118298811372248e-05,2.0118298811366553e-05
9.7500000000000003e-12,5.7156804841964271e-06,5.6847136637301679e-06,5.6847136637301679e-06,5.6847136637301679e-06,1.8379975699443784e-05,1.8379975699436919e-05,1.8379975699443784e-05,1.8379975699436919e-05,1.8379975699443784e-05,1.8379975699436919e-05,1.8379975699443784e-05,1.8379975699436628e-05
9.9999999999999994e-12,4.9340001765489641e-06,4.8999841029808758e-06,4.8999841029808758e-06,4.8999841029808758e-06,1.6814451484449844e-05,1.6814451484441520e-05,1.6814451484449844e-05,1.6814451484441520e-05,1.6814451484449844e-05,1.6814451484441520e-05,1.6814451484449844e-05,1.6814451484441374e-05
1.0250000000000000e-11,4.4223148252876980e-06,4.3860163008101839e-06,4.3860163008101839e-06,4.3860163008101839e-06,1.5423862416012611e-05,1.5423862416002972e-05,1.5423862416012611e-05,1.5423862416002972e-05,1.5423862416012611e-05,1.5423862416002972e-05,1.5423862416012611e-05,1.5423862416002681e-05
1.0499999999999999e-11,4.1292288099499144e-06,4.0915009330303158e-06,4.0915009330303158e-06,4.0915009330303158e-06,1.4201713098437604e-05,1.4201713098426357e-05,1.4201713098437604e-05,1.4201713098426357e-05,1.4201713098437604e-05,1.4201713098426357e-05,1.4201713098437604e-05,1.4201713098426212e-05
1.0750000000000000e-11,4.0015188317746844e-06,3.9632728578478215e-06,3.9632728578478215e-06,3.9632728578479680e-06,1.3134745106858208e-05,1.3134745106845061e-05,1.3134745106858208e-05,1.3134745106845061e-05,1.3134745106858208e-05,1.3134745106845061e-05,1.3134745106858208e-05,1.3134745106845354e-05
1.0999999999999999e-11,3.9871637897270909e-06,3.9493381772831796e-06,3.9493381772831796e-06,3.9493381772830339e-06,1.2204974578956176e-05,1.2204974578940982e-05,1.2204974578956176e-05,1.2204974578940982e-05,1.2204974578956176e-05,1.2204974578940982e-05,1.2204974578956176e-05,1.2204974578941129e-05
1.1250000000000000e-11,4.0379075225560389e-06,4.0014353935820585e-06,4.0014353935820585e-06,4.0014353935820585e-06,1.1391719454501239e-05,1.1391719454483707e-05,1.1391719454501239e-05,1.1391719454483707e-05,1.1391719454501239e-05,1.1391719454483707e-05,1.1391719454501239e-05,1.1391719454483854e-05
1.1499999999999999e-11,4.1112727964303672e-06,4.0770491199278273e-06,4.0770491199278273e-06,4.0770491199279730e-06,1.0673465966449651e-05,1.0673465966430218e-05,1.0673465966449651e-05,1.0673465966430218e-05,1.0673465966449651e-05,1.0673465966430218e-05,1.0673465966449651e-05,1.0673465966430659e-05
1.1750000000000000e-11,4.1719857074530169e-06,4.1408355316086428e-06,4.1408355316086428e-06,4.1408355316084962e-06,1.0029460689329870e-05,1.0029460689309268e-05,1.0029460689329870e-05,1.0029460689309268e-05,1.0029460689329870e-05,1.0029460689309268e-05,1.0029460689329870e-05,1.0029460689309563e-05
1.2000000000000001e-11,4.1928080787349669e-06,4.1654570954962284e-06,4.1654570954962284e-06,4.1654570954963741e-06,9.4409546330810229e-06,9.4409546330591051e-06,9.4409546330808772e-06,9.4409546330591051e-06,9.4409546330810229e-06,9.4409546330591051e-06,9.4409546330808772e-06,9.4409546330592542e-06
1.2250000000000000e-11,4.1548095375685876e-06,4.1318581704409059e-06,4.1318581704409059e-06,4.1318581704407594e-06,8.8920655849734319e-06,8.8920655849506366e-06,8.8920655849731388e-06,8.8920655849506366e-06,8.8920655849734319e-06,8.8920655849506366e-06,8.8920655849731388e-06,8.8920655849509313e-06
1.2500000000000000e-11,4.0471391153394056e-06,4.0290411855712319e-06,4.0290411855712319e-06,4.0290411855712319e-06,8.3702608846263183e-06,8.3702608846042531e-06,8.3702608846263166e-06,8.3702608846042531e-06,8.3702608846263183e-06,8.3702608846042531e-06,8.3702608846263166e-06,8.3702608846044022e-06
1.2750000000000000e-11,3.8663772651115500e-06,3.8534241214158728e-06,3.8534241214158728e-06,3.8534241214158728e-06,7.8664926251082752e-06,7.8664926250879633e-06,7.8664926251085649e-06,7.8664926250879633e-06,7.8664926251082752e-06,7.8664926250879633e-06,7.8664926251085649e-06,7.8664926250878193e-06
1.3000000000000000e-11,3.6155625944796834e-06,3.6078733935732492e-06,3.6078733935732492e-06,3.6078733935732492e-06,7.3750394050457366e-06,7.3750394050283479e-06,7.3750394050458798e-06,7.3750394050283479e-06,7.3750394050457366e-06,7.3750394050283479e-06,7.3750394050458798e-06,7.3750394050282039e-06
1.3249999999999999e-11,3.3029934560705599e-06,3.3005120608404402e-06,3.3005120608404402e-06,3.3005120608405863e-06,6.8931226205219421e-06,6.8931226205092307e-06,6.8931226205219396e-06,6.8931226205092307e-06,6.8931226205219421e-06,6.8931226205092307e-06,6.8931226205219396e-06,6.8931226205095246e-06
1.3500000000000000e-11,2.9409034858038050e-06,2.9434022077872148e-06,2.9434022077872148e-06,2.9434022077873609e-06,6.4203711149986277e-06,6.4203711149929314e-06,6.4203711149986252e-06,6.4203711149929314e-06,6.4203711149986277e-06,6.4203711149929314e-06,6.4203711149986252e-06,6.4203711149930796e-06
1.3749999999999999e-11,2.5441033263368035e-06,2.5511934823486012e-06,2.5511934823486012e-06,2.5511934823483089e-06,5.9582066922927906e-06,5.9582066922970325e-06,5.9582066922927881e-06,5.9582066922970325e-06,5.9582066922927906e-06,5.9582066922970325e-06,5.9582066922927881e-06,5.9582066922971816e-06
1.4000000000000000e-11,2.1286694802396742e-06,2.1398184623533102e-06,2.1398184623533102e-06,2.1398184623544796e-06,5.5092159015491150e-06,5.5092159015665106e-06,5.5092159015491125e-06,5.5092159015665106e-06,5.5092159015491150e-06,5.5092159015665106e-06,5.5092159015491125e-06,5.5092159015666596e-06
1.4249999999999999e-11,1.7107469557374165e-06,1.7253012346108489e-06,1.7253012346108489e-06,1.7253012346096798e-06,5.0765622450291625e-06,5.0765622450632200e-06,5.0765622450290142e-06,5.0765622450632200e-06,5.0765622450290168e-06,5.0765622450632200e-06,5.0765622450290142e-06,5.0765622450629303e-06
1.4500000000000000e-11,1.3055164868116500e-06,1.3227296892666018e-06,1.3227296892666018e-06,1.3227296892666020e-06,4.6634792330543785e-06,4.6634792331091900e-06,4.6634792330540846e-06,4.6634792331091900e-06,4.6634792330540871e-06,4.6634792331091900e-06,4.6634792330540846e-06,4.6634792331091926e-06
1.4750000000000001e-11,9.2636084998325956e-07,9.4542578439776267e-07,9.4542578439776267e-07,9.4542578439776288e-07,4.2728701202093089e-06,4.2728701202901353e-06,4.2728701202094528e-06,4.2728701202901353e-06,4.2728701202094562e-06,4.2728701202901353e-06,4.2728701202094528e-06,4.2728701202901378e-06
1.5000000000000000e-11,5.8424914814503093e-07,6.0433241296432014e-07,6.0433241296432014e-07,6.0433241296432036e-07,3.9070260966671340e-06,3.9070260967792371e-06,3.9070260966674245e-06,3.9070260967792371e-06,3.9070260966674279e-06,3.9070260967792371e-06,3.9070260966674245e-06,3.9070260967788009e-06
1.5249999999999999e-11,2.8734362626087884e-07,3.0762124513500902e-07,3.0762124513500902e-07,3.0762124513500923e-07,3.5674622797092734e-06,3.5674622798577685e-06,3.5674622797092717e-06,3.5674622798577685e-06,3.5674622797092751e-06,3.5674622798577685e-06,3.5674622797092717e-06,3.5674622798574788e-06
1.5499999999999998e-11,4.0821125146464512e-08,6.0513528111587846e-08,6.0513528111587846e-08,6.0513528111588058e-08,3.2548608210356131e-06,3.2548608212266381e-06,3.2548608210356114e-06,3.2548608212266381e-06,3.2548608210357609e-06,3.2548608212266381e-06,3.2548608210356114e-06,3.2548608212266411e-06
1.5750000000000001e-11,-1.5310902704497474e-07,-1.3470439644551606e-07,-1.3470439644551606e-07,-1.3470439644566201e-07,2.9691032433580659e-06,2.9691032435981981e-06,2.9691032433580642e-06,2.9691032435981981e-06,2.9691032433582137e-06,2.9691032435981981e-06,2.9691032433580642e-06,2.9691032435980549e-06
1.6000000000000000e-11,-2.9501689362406096e-07,-2.7849700588753203e-07,-2.7849700588753203e-07,-2.7849700588767804e-07,2.7093698559939303e-06,2.7093698562896003e-06,2.7093698559939287e-06,2.7093698562896003e-06,2.7093698559939320e-06,2.7093698562896003e-06,2.7093698559939287e-06,2.7093698562893115e-06
1.6249999999999999e-11,-3.8792546366954922e-07,-3.7375866110666463e-07,-3.7375866110666463e-07,-3.7375866110651830e-07,2.4742826125155023e-06,2.4742826128729951e-06,2.4742826125155006e-06,2.4742826128729951e-06,2.4742826125155040e-06,2.4742826128729951e-06,2.4742826125155006e-06,2.4742826128729985e-06
