time,"V(1,0)","V(2,0)","V(3,0)"
0.0000000000000000e+00,0.0000000000000000e+00,0.0000000000000000e+00,0.0000000000000000e+00
2.4999999999999999e-13,2.3897865245277585e-05,5.8109557014748662e-06,1.7498842754784423e-05
4.9999999999999999e-13,1.8679753987781886e-05,8.3070932671571491e-06,2.3701231803198851e-05
7.5000000000000004e-13,4.7354731977136734e-05,1.7695695240767022e-05,4.8719245899619649e-05
9.9999999999999998e-13,5.0279439816585310e-05,2.7376150912404552e-05,6.8768869300827600e-05
1.2499999999999999e-12,7.5326273296970927e-05,4.0041810600377232e-05,9.4105896508466362e-05
1.5000000000000001e-12,5.6585739379073403e-05,4.2980906795871802e-05,8.9274606430361900e-05
1.7500000000000000e-12,6.4785393795818881e-05,4.6883427202863496e-05,9.1747355251822955e-05
2.0000000000000000e-12,3.9041675059409198e-05,4.1407715994078064e-05,7.3775968432362044e-05
2.2499999999999999e-12,4.9490910300751569e-05,3.9244791100266356e-05,7.4245400639407410e-05
2.4999999999999998e-12,3.1371804378019299e-05,3.1145038547612992e-05,6.1943869563942227e-05
2.7499999999999998e-12,5.0159559152669680e-05,2.9817543061329625e-05,7.0770607488778332e-05
3.0000000000000001e-12,3.7766924619665999e-05,2.5066956310669471e-05,6.5623210654738816e-05
3.2500000000000001e-12,5.8492573850661564e-05,2.8109067082705335e-05,7.8673618381191844e-05
3.5000000000000000e-12,4.4921579258204390e-05,2.7264442040808493e-05,7.4955459608617742e-05
3.7500000000000000e-12,6.2978205366879270e-05,3.2745196568623939e-05,8.7704017502658068e-05
3.9999999999999999e-12,4.6887640549001854e-05,3.2568062776739553e-05,8.3081123300459455e-05
4.2499999999999999e-12,6.3611849957440623e-05,3.7271545385612244e-05,9.5080469101872721e-05
4.4999999999999998e-12,4.7631787955397367e-05,3.5557657647331963e-05,9.0224738732735095e-05
4.7499999999999998e-12,6.5556588265268116e-05,3.8685753256674822e-05,1.0263644318814207e-04
4.9999999999999997e-12,5.1249129209955056e-05,3.5872142245172711e-05,9.8893802976836691e-05
5.2499999999999996e-12,4.6869139282028220e-05,3.2776133244052266e-05,9.5674583385153058e-05
5.4999999999999996e-12,3.2217437258831404e-05,2.5004812472736346e-05,7.9482049776902390e-05
5.7499999999999995e-12,1.4657686505247284e-05,1.5025055689391186e-05,5.7937764787880850e-05
6.0000000000000003e-12,-2.0929645551480601e-07,5.0917255838576726e-06,3.7435237311920274e-05
6.2500000000000002e-12,-9.6690347491095076e-06,-3.0195232490198401e-06,2.1555546568129378e-05
6.5000000000000002e-12,-1.3400509364921839e-05,-8.2135205174509078e-06,1.1263515499663639e-05
6.7500000000000001e-12,-1.2629220031837357e-05,-1.0179702335420862e-05,5.8656720868056056e-06
7.0000000000000001e-12,-9.2348029895394717e-06,-9.3550187246756349e-06,3.9855142615785220e-06
7.2500000000000000e-12,-5.0484557715306854e-06,-6.7071393045737860e-06,4.2368616235246999e-06
7.5000000000000000e-12,-1.4153988601102599e-06,-3.3907590662640652e-06,5.5429426259607368e-06
7.7499999999999991e-12,9.7573785020960287e-07,-3.9998826793688592e-07,7.1879621622050093e-06
7.9999999999999998e-12,2.0410802945992514e-06,1.6599755400992964e-06,8.7335019436401056e-06
8.2500000000000006e-12,2.1043888515679670e-06,2.6232191791280095e-06,9.9134418417833618e-06
8.4999999999999997e-12,1.6477926126491383e-06,2.6614792738822635e-06,1.0569199729465690e-05
8.7500000000000005e-12,1.0965469759280119e-06,2.1118017045823403e-06,1.0632984755583067e-05
8.9999999999999996e-12,6.9492438610308037e-07,1.3187844041505708e-06,1.0133187588620269e-05
9.2500000000000004e-12,4.8886318111374853e-07,5.4129233070650354e-07,9.1907705306737899e-06
9.4999999999999995e-12,3.9145287405958143e-07,-7.1839830445911739e-08,7.9910402554264780e-06
9.7500000000000003e-12,2.8284790003142357e-07,-4.6265974025057040e-07,6.7359203996110878e-06
9.9999999999999994e-12,9.3718100825946378e-08,-6.3269767059496570e-07,5.5945713935916157e-06
1.0250000000000000e-11,-1.6081689561845858e-07,-6.1842567368369041e-07,4.6703477018967336e-06
1.0499999999999999e-11,-4.0125520537958829e-07,-4.7666048530837361e-07,3.9930349313367967e-06
1.0750000000000000e-11,-5.3647273607210914e-07,-2.7391726682242996e-07,3.5338515316171785e-06
1.0999999999999999e-11,-5.1611317550707803e-07,-7.4235392912158262e-08,3.2326779985182156e-06
1.1250000000000000e-11,-3.5552154644420350e-07,7.4269785819254717e-08,3.0250924528140810e-06
1.1499999999999999e-11,-1.2448410040592861e-07,1.4922856296595525e-07,2.8603650813423661e-06
1.1750000000000000e-11,8.9211002407584033e-08,1.5535334779809820e-07,2.7076829085609456e-06
1.2000000000000001e-11,2.1949418065911184e-07,1.1651800240317193e-07,2.5532394624778280e-06
1.2250000000000000e-11,2.4525591300165691e-07,6.2581149192676035e-08,2.3933560567960781e-06
1.2500000000000000e-11,1.8913341616727721e-07,1.7175744369866881e-08,2.2282906659879045e-06
1.2750000000000000e-11,9.7412913509185851e-08,-8.6964076597069238e-09,2.0590577128263444e-06
1.3000000000000000e-11,1.4602735775559009e-08,-1.6072362189659329e-08,1.8870938250715413e-06
1.3249999999999999e-11,-3.4275214988640256e-08,-1.2738784094298163e-08,1.7151683563629342e-06
1.3500000000000000e-11,-4.7513433593130135e-08,-7.0678244614057803e-09,1.5478795053498639e-06
1.3749999999999999e-11,-3.8807968596608956e-08,-4.0375042430335001e-09,1.3909560994130222e-06
1.4000000000000000e-11,-2.4901777449770689e-08,-4.4552908200704888e-09,1.2496379568087681e-06
1.4249999999999999e-11,-1.6204417577433373e-08,-6.5071758145526677e-09,1.1270185535347893e-06
1.4500000000000000e-11,-1.4120027359746455e-08,-7.9391999449589968e-09,1.0231949182083436e-06
1.4750000000000001e-11,-1.4225867136640448e-08,-7.5155576401716465e-09,9.3556565544255504e-07
1.5000000000000000e-11,-1.1616056282937348e-08,-5.3127065662395705e-09,8.6002200518915528e-07
1.5249999999999999e-11,-4.6887911725498843e-09,-2.2032544752215070e-09,7.9241374803207685e-07
1.5499999999999998e-11,4.3420803177713055e-09,8.3368231663531791e-10,7.2967020907001681e-07
1.5750000000000001e-11,1.1553777537838910e-08,3.1296970269845382e-09,6.7023653308880571e-07
1.6000000000000000e-11,1.4054412420696347e-08,4.3921975615686451e-09,6.1385039549351296e-07
1.6249999999999999e-11,1.1545721671067362e-08,4.5878356061780424e-09,5.6094635165832502e-07
1.6500000000000001e-11,6.0644380069810987e-09,3.8385243740159998e-09,5.1204235406021360e-07
1.6750000000000000e-11,4.8143783967913120e-10,2.3986825559187910e-09,4.6735826248699870e-07
1.6999999999999999e-11,-3.0960850305367213e-09,6.5693370998443898e-10,4.2673507672022306e-07
1.7249999999999999e-11,-4.1134445196621936e-09,-9.2175515378318543e-10,3.8976989472976125e-07
1.7500000000000001e-11,-3.3348996071727424e-09,-1.9320007799454314e-09,3.5601637440024341e-07
1.7750000000000000e-11,-2.0026779427004393e-09,-2.1774058437833400e-09,3.2512585567560158e-07
1.7999999999999999e-11,-1.0256300612868568e-09,-1.7407327136660257e-09,2.9687951985011106e-07
1.8249999999999998e-11,-6.3364212891861497e-10,-9.2683802769364012e-10,2.7113528320866034e-07
1.8500000000000001e-11,-5.4134561216737273e-10,-1.0908930498799236e-10,2.4774972492154621e-07
1.8750000000000000e-11,-3.5954579388755162e-10,4.3493021366404095e-10,2.2652898937321194e-07
1.8999999999999999e-11,7.2565630183862978e-11,6.1490101102493527e-10,2.0723004983335493e-07
1.9249999999999998e-11,6.1589879552766381e-10,5.1387386813854654e-10,1.8959964977056570e-07
1.9500000000000001e-11,9.9026481319072325e-10,2.9803868546304591e-10,1.7342068338323113e-07
1.9750000000000000e-11,9.9885046030273787e-10,1.1334517592059235e-10,1.5853909687215546e-07
1.9999999999999999e-11,6.5615296796539475e-10,2.4415681454617159e-11,1.4486104919186110e-07
2.0250000000000001e-11,1.5813920418015675e-10,1.4763655053623411e-11,1.3232783139307685e-07
2.0500000000000000e-11,-2.5389392141720599e-10,2.9384626147435937e-11,1.2088548041677804e-07
2.0749999999999999e-11,-4.3091372305527006e-10,2.3181011583628564e-11,1.1046450694584700e-07
2.0999999999999999e-11,-3.7346762585196886e-10,-1.3725033924658661e-11,1.0097631841530238e-07
2.1250000000000001e-11,-1.9355939714616148e-10,-6.0900583621923212e-11,9.2323114897853245e-08
2.1500000000000000e-11,-2.5389389783509646e-11,-9.0186364795528814e-11,8.4412413256113518e-08
2.1749999999999999e-11,5.1919170700764925e-11,-8.6759239273225239e-11,7.7167592003028721e-08
2.1999999999999998e-11,3.9260229468190933e-11,-5.6100851405300754e-11,7.0530248504895306e-08
2.2250000000000001e-11,-9.7028725063175807e-12,-1.6533951369864356e-11,6.4455408657182690e-08
2.2500000000000000e-11,-3.7850519723773878e-11,1.4086322665062327e-11,5.8903889006374046e-08
2.2749999999999999e-11,-2.1217674036296133e-11,2.7790117014089870e-11,5.3836309876261979e-08
2.2999999999999998e-11,2.5046047509686359e-11,2.7431738158469508e-11,4.9211144058349230e-08
2.3250000000000000e-11,6.6482788359580149e-11,2.1086153273691803e-11,4.4986461386078975e-08
2.3500000000000000e-11,7.6108797933695232e-11,1.5321221305823648e-11,4.1123237376878651e-08
2.3749999999999999e-11,5.0202244603938777e-11,1.1875619030844078e-11,3.7587886794185982e-08
2.4000000000000001e-11,6.3134098279749811e-12,8.7739919398244843e-12,3.4352734093818333e-08
2.4250000000000000e-11,-3.1017400034756887e-11,3.7292550605018279e-12,3.1394566613099552e-08
2.4499999999999999e-11,-4.5479848698946961e-11,-3.2330059982363951e-12,2.8692396339741914e-08
2.4749999999999999e-11,-3.6087741679422764e-11,-9.6463548781062445e-12,2.6225698988044784e-08
2.5000000000000001e-11,-1.4065123623263475e-11,-1.2536149952420733e-11,2.3973848130805668e-08
2.5250000000000000e-11,6.1771984058575113e-12,-1.0629123677075115e-11,2.1916677558140780e-08
2.5499999999999999e-11,1.5430445755263294e-11,-5.2109178987929510e-12,2.0035546974048935e-08
2.5749999999999998e-11,1.2983158545026059e-11,7.8091018711987603e-13,1.8314182863731950e-08
2.6000000000000001e-11,4.4187156598041642e-12,4.5922949835539398e-12,1.6738857112693286e-08
2.6250000000000000e-11,-3.3171072293265397e-12,5.1195073033803809e-12,1.5297906774439764e-08
2.6499999999999999e-11,-6.0836400115948428e-12,3.1719804531249909e-12,1.3980930238563786e-08
2.6749999999999998e-11,-3.8944254364348545e-12,5.9569586242373541e-13,1.2778079201958801e-08
2.7000000000000000e-11,4.3173029076366310e-13,-9.9706929505641193e-13,1.1679721285238107e-08
2.7250000000000000e-11,3.7360996341248228e-12,-1.0629111657074112e-12,1.0676503836313486e-08
2.7499999999999999e-11,4.3864583554314599e-12,-1.3800046229800216e-13,9.7596505096101584e-09
2.7749999999999998e-11,2.7007592434609954e-12,7.8568683574304763e-13,8.9212555331568546e-09
2.8000000000000000e-11,1.5810243098101195e-13,9.9396406576908590e-13,8.1544048499974860e-09
2.8249999999999999e-11,-1.7687388940444555e-12,4.2738337405895934e-13,7.4530841214521344e-09
2.8499999999999999e-11,-2.3875300644942630e-12,-4.3866064501649605e-13,6.8119493931892095e-09
2.8750000000000001e-11,-1.8745565723856073e-12,-1.0167967982132964e-12,6.2260849463075406e-09
2.9000000000000000e-11,-8.6900755024860518e-13,-1.0019380034797721e-12,5.6908477579423853e-09
2.9250000000000002e-11,2.4344977925162956e-14,-5.0182997523612420e-13,5.2018312524984271e-09
2.9500000000000002e-11,5.1619755840794192e-13,1.1479571783819632e-13,4.7549156956277183e-09
2.9750000000000001e-11,6.2857617234309279e-13,4.9442065017973306e-13,4.3463407164827722e-09
3.0000000000000000e-11,5.2729994110590753e-13,5.0271744418205247e-13,3.9727432072520557e-09
3.0249999999999999e-11,3.5983124157317007e-13,2.4975421565313346e-13,3.6311374196716383e-09
3.0499999999999998e-11,1.9247036896557584e-13,-3.6401614255167853e-14,3.3188496439485566e-09
3.0749999999999997e-11,3.7711876629309326e-14,-1.7521140769748229e-13,3.0334400016560663e-09
3.0999999999999996e-11,-9.4758598916887936e-14,-1.2894963539205917e-13,2.7726423961574995e-09
3.1250000000000002e-11,-1.7760003639661941e-13,1.2628281654352844e-14,2.5343375478920615e-09
3.1500000000000001e-11,-1.8451400397305231e-13,1.2177809121161532e-13,2.3165546375247028e-09
3.1750000000000000e-11,-1.1860380489285334e-13,1.2348189127650190e-13,2.1174852328810307e-09
3.1999999999999999e-11,-1.9644901906556680e-14,3.1333086956446608e-14,1.9354921613465777e-09
3.2249999999999998e-11,5.8161099269895442e-14,-8.0627999723443567e-14,1.7691038793529706e-09
3.2499999999999998e-11,7.9252955809817804e-14,-1.3775128502680722e-13,1.6169949179655969e-09
3.2749999999999997e-11,4.6168026127475936e-14,-1.1211592798987628e-13,1.4779602043486041e-09
3.3000000000000002e-11,-7.7369558559602553e-15,-3.0892852470805415e-14,1.3508922114191400e-09
3.3250000000000002e-11,-4.3649675125883928e-14,5.0766996521943613e-14,1.2347665826702419e-09
3.3500000000000001e-11,-4.2328829828380310e-14,8.8134201934511872e-14,1.1286364780696702e-09
3.3750000000000000e-11,-1.1981711206669689e-14,7.0892235431986009e-14,1.0316320695062243e-09
3.3999999999999999e-11,2.2278940603349039e-14,2.1627458413297868e-14,9.4296035906098040e-10
3.4249999999999998e-11,3.7943013398256006e-14,-2.4616120194103386e-14,8.6190212916058628e-10
3.4499999999999997e-11,2.8682479447191343e-14,-4.3266235271123508e-14,7.8780532527363005e-10
3.4749999999999996e-11,5.2167069160472824e-15,-3.1675586829491833e-14,7.2007648760720641e-10
3.5000000000000002e-11,-1.5206278458161301e-14,-5.0746074548725598e-15,6.5817245948886919e-10
3.5250000000000001e-11,-2.0945633645116677e-14,1.6776210951193251e-14,6.0159415407145915e-10
3.5500000000000000e-11,-1.2320343510593142e-14,2.2225106582681484e-14,5.4988270221332821e-10
3.5749999999999999e-11,1.3833467914313858e-15,1.2377373877176373e-14,5.0261732758921671e-10
3.5999999999999998e-11,9.7084650468312363e-15,-2.8673236902273911e-15,4.5941367599191870e-10
3.6249999999999998e-11,8.2506912039001091e-15,-1.2958901837687099e-14,4.1992172221498257e-10
3.6499999999999997e-11,1.4020314776430828e-16,-1.3082157515974483e-14,3.8382288491710617e-10
3.6750000000000002e-11,-7.4232617640325697e-15,-5.5610355371195534e-15,3.5082670389935024e-10
3.7000000000000001e-11,-8.9279728782305204e-15,3.3573842760211802e-15,3.2066758410042318e-10
3.7250000000000001e-11,-3.8147412324806062e-15,8.1634515008785326e-15,2.9310212949619803e-10
3.7500000000000000e-11,3.7859536590682425e-15,7.1604128176437934e-15,2.6790715559405589e-10
3.7749999999999999e-11,8.6655205642806412e-15,2.4519710743745533e-15,2.4487827772598643e-10
3.7999999999999998e-11,7.9291982497793066e-15,-2.2555196701120499e-15,2.2382870612078182e-10
3.8249999999999997e-11,2.6784729813642657e-15,-4.2682072576280559e-15,2.0458803569012741e-10
3.8499999999999996e-11,-3.4358956025664435e-15,-3.1860953641386214e-15,1.8700086948877855e-10
3.8750000000000002e-11,-6.6777868544818033e-15,-5.4451695870775766e-16,1.7092538475910292e-10
3.9000000000000001e-11,-5.6790366034236973e-15,1.6427646512140710e-15,1.5623193477758320e-10
3.9250000000000000e-11,-1.6899758485461752e-15,2.1792215054853779e-15,1.4280185865356912e-10
3.9499999999999999e-11,2.4349006081674178e-15,1.2019221499577573e-15,1.3052649863861946e-10
3.9749999999999998e-11,4.3841482097654255e-15,-2.8852679459456786e-16,1.1930643101924254e-10
3.9999999999999998e-11,3.4454321811807903e-15,-1.2350356157663088e-15,1.0905077661862082e-10
4.0249999999999997e-11,7.9225825367833021e-16,-1.2007684793034102e-15,9.9676561744043246e-11
4.0500000000000002e-11,-1.7581278918430875e-15,-4.4399171033980108e-16,9.1108042269635718e-11
4.0750000000000001e-11,-2.7406768057510389e-15,3.9538164141745484e-16,8.3276052990251843e-11
4.1000000000000001e-11,-1.9877497769769892e-15,8.0303272614532867e-16,7.6117365974159985e-11
4.1250000000000000e-11,-2.6093890257986133e-16,6.4208007971995887e-16,6.9574147667860439e-11
4.1499999999999999e-11,1.2032171299042863e-15,1.5968984476317929e-16,6.3593472284785953e-11
4.1749999999999998e-11,1.6855196652455425e-15,-2.8458248816821974e-16,5.8126934981269986e-11
4.1999999999999997e-11,1.0981578152830039e-15,-4.3741266958122831e-16,5.3130284824346418e-11
4.2249999999999996e-11,6.7863476030976403e-17,-2.9753789781365581e-16,4.8563106756063773e-11
4.2500000000000002e-11,-7.7006500103353314e-16,-2.3276084958647537e-17,4.4388486195090941e-11
4.2750000000000001e-11,-9.4765707671659055e-16,1.7976995020640636e-16,4.0572708736389522e-11
4.3000000000000000e-11,-5.7790749469747156e-16,2.1880767072646893e-16,3.7084954136926405e-11
4.3249999999999999e-11,3.2805537405109271e-17,1.1207754505540329e-16,3.3897044018128516e-11
4.3499999999999998e-11,4.3991438156270109e-16,-2.8264931031498979e-17,3.0983198346304673e-11
4.3749999999999998e-11,5.0735239846924550e-16,-1.1438488636409707e-16,2.8319846457919643e-11
4.3999999999999997e-11,2.5143404153943838e-16,-1.0378358845928775e-16,2.5885435379708567e-11
4.4250000000000002e-11,-6.0162516466117656e-17,-3.6714789067391120e-17,2.3660278850403021e-11
4.4500000000000001e-11,-2.6875974735661255e-16,3.6418576331815562e-17,2.1626383707447527e-11
4.4750000000000001e-11,-2.4570524723508189e-16,6.3763688868632553e-17,1.9767321792168175e-11
4.5000000000000000e-11,-9.9315394997380953e-17,4.8017643451195175e-17,1.8068067005307696e-11
4.5249999999999999e-11,8.3624057436090002e-17,5.5968616879802175e-18,1.6514894111970607e-11
4.5499999999999998e-11,1.5000628034360673e-16,-2.4102362589463556e-17,1.5095240543848599e-11
4.5749999999999997e-11,1.2552863956961338e-16,-3.2614581201266339e-17,1.3797630737560589e-11
4.5999999999999996e-11,1.5748467970873246e-17,-1.5543373545727789e-17,1.2611563677300519e-11
4.6250000000000002e-11,-6.0798057490233164e-17,2.8997667798449032e-18,1.1527452097753806e-11
4.6500000000000001e-11,-9.6044799335137579e-17,1.6432011752454456e-17,1.0536526519938038e-11
4.6750000000000000e-11,-4.9109857581474305e-17,1.1832919279044526e-17,9.6307822245525970e-12
4.6999999999999999e-11,-2.8732919790600440e-18,3.7728148425939067e-18,8.8028949779736524e-12
4.7249999999999998e-11,5.1600383166965282e-17,-7.7483015568974039e-18,8.0461786606204788e-12
4.7499999999999998e-11,4.4565693538782512e-17,-7.7015311249644210e-18,7.3545114133359229e-12
4.7749999999999997e-11,3.0776649743529170e-17,-5.5500912560472354e-18,6.7223049697088744e-12
4.8000000000000002e-11,-1.1506674834933176e-17,3.1647992274651354e-18,6.1444427272402474e-12
4.8250000000000001e-11,-2.3759539590939573e-17,4.5211417535216236e-18,5.6162561186013310e-12
4.8500000000000001e-11,-3.6059418576034933e-17,5.7059926958238422e-18,5.1334700943852184e-12
4.8750000000000000e-11,-5.7744785481925428e-18,-4.9888460728514508e-19,4.6921865747065489e-12
4.8999999999999999e-11,8.4758903031266996e-19,-1.7772764134533287e-18,4.2888344037475043e-12
4.9249999999999998e-11,2.6113412939711348e-17,-4.8953052089854820e-18,3.9201574387741355e-12
4.9499999999999997e-11,8.3879468382702718e-18,-8.2627763081602082e-19,3.5831712951852255e-12
4.9749999999999996e-11,1.2994106801854094e-17,-3.5857331148619798e-19,3.2751557278993172e-12
5.0000000000000002e-11,-1.2681778215269810e-17,3.4610119630406916e-18,2.9936158758018155e-12
5.0250000000000001e-11,5.4200184941956536e-04,4.0607598254343367e-08,2.7362799154330190e-12
5.0500000000000000e-11,1.2592954518977212e-04,1.5893854745588344e-07,2.5010625413325003e-12
5.0749999999999999e-11,7.2366211455066032e-04,5.0078802872670527e-07,2.2860671743327199e-12
5.0999999999999998e-11,2.8439606459571064e-04,1.1691554228267465e-06,2.0895504632391949e-12
5.1249999999999998e-11,8.1690151409946415e-04,2.3327111530937617e-06,1.9099295583975924e-12
5.1499999999999997e-11,3.1309360603841625e-04,3.9942783058127887e-06,1.7457467789959204e-12
5.1749999999999996e-11,8.0983576935953752e-04,6.0997939297204472e-06,1.5956800886573553e-12
5.2000000000000001e-11,3.0692506130070908e-04,8.3744564296292077e-06,1.4585110199755145e-12
5.2250000000000001e-11,8.3446315660022391e-04,1.0561900714431049e-05,1.3331355365586652e-12
5.2500000000000000e-11,3.8063508326965142e-04,1.2399452504032264e-05,1.2185352700054175e-12
5.2749999999999999e-11,9.6571764436867956e-04,1.3932247396845851e-05,1.1137886027782935e-12
5.2999999999999998e-11,5.6813927108908526e-04,1.5451589497416581e-05,1.0180438650400012e-12
5.3249999999999997e-11,1.1841644558846646e-03,1.7665283142585825e-05,9.3053172870133704e-13
5.3499999999999996e-11,7.3558503646357042e-04,2.1436862000156282e-05,8.5054003287399944e-13
