time,"V(VIN)","I(ROUT)","P(B01)","P(B02)"
0.0000000000000000e+00,0.0000000000000000e+00,0.0000000000000000e+00,-0.0000000000000000e+00,0.0000000000000000e+00
2.4999999999999999e-13,0.0000000000000000e+00,5.2618741531120480e-07,1.7590417807724227e-03,1.7625663594452144e-03
4.9999999999999999e-13,0.0000000000000000e+00,1.5716881140680174e-06,8.0121054675156393e-03,8.0770942589644939e-03
7.5000000000000004e-13,0.0000000000000000e+00,3.2165404700073854e-06,1.9972881104409729e-02,2.0314148937445375e-02
9.9999999999999998e-13,0.0000000000000000e+00,5.6603218101717444e-06,3.9620481831880307e-02,4.0833485841071430e-02
1.2499999999999999e-12,0.0000000000000000e+00,8.6821678601514575e-06,6.6084786385761096e-02,6.9263745173015243e-02
1.5000000000000001e-12,0.0000000000000000e+00,1.1517754805746687e-05,9.4336133134753572e-02,1.0097060381416387e-01
1.7500000000000000e-12,0.0000000000000000e+00,1.3684468263672036e-05,1.2040901487730567e-01,1.3218874326166610e-01
2.0000000000000000e-12,0.0000000000000000e+00,1.5039362540475094e-05,1.4237794825849240e-01,1.6086639618811072e-01
2.2499999999999999e-12,0.0000000000000000e+00,1.5722652589897952e-05,1.6046244638943050e-01,1.8677372144952237e-01
2.4999999999999998e-12,0.0000000000000000e+00,1.6018958019877473e-05,1.7630198262658284e-01,2.1093400702963466e-01
2.7499999999999998e-12,0.0000000000000000e+00,1.6214155196079181e-05,1.9191305307583181e-01,2.3481358139389383e-01
3.0000000000000001e-12,0.0000000000000000e+00,1.6501752398714401e-05,2.0882519715237405e-01,2.5965103817639468e-01
3.2500000000000001e-12,0.0000000000000000e+00,1.6952171206174529e-05,2.2765487392531858e-01,2.8609611276890140e-01
3.5000000000000000e-12,0.0000000000000000e+00,1.7534844668378920e-05,2.4815477258146096e-01,3.1418070809926768e-01
3.7500000000000000e-12,0.0000000000000000e+00,1.8166192977556995e-05,2.6957047820633767e-01,3.4350880497182873e-01
3.9999999999999999e-12,0.0000000000000000e+00,1.8759082787147388e-05,2.9108142782798740e-01,3.7353002192495438e-01
4.2499999999999999e-12,0.0000000000000000e+00,1.9256076281926488e-05,3.1212963330578486e-01,4.0377260704088691e-01
4.4999999999999998e-12,0.0000000000000000e+00,1.9641428389909179e-05,3.3254897796214089e-01,4.3397528813952008e-01
4.7499999999999998e-12,0.0000000000000000e+00,1.9934778620944300e-05,3.5250583741168517e-01,4.6410654382821853e-01
4.9999999999999997e-12,0.0000000000000000e+00,2.0175095217244092e-05,3.7233418520988038e-01,4.9430435465996503e-01
5.2499999999999996e-12,0.0000000000000000e+00,1.9877028455749912e-05,3.9060055944945948e-01,5.2301840137411992e-01
5.4999999999999996e-12,0.0000000000000000e+00,1.8890966269016031e-05,4.0346303277334677e-01,5.4630970935333023e-01
5.7499999999999995e-12,0.0000000000000000e+00,1.7000325055441629e-05,4.0856073654654784e-01,5.6156322862716868e-01
6.0000000000000003e-12,0.0000000000000000e+00,1.4485553214256837e-05,4.0701074440020851e-01,5.6942046583794648e-01
6.2500000000000002e-12,0.0000000000000000e+00,1.1823327461069034e-05,4.0186436631645661e-01,5.7236495105765461e-01
6.5000000000000002e-12,0.0000000000000000e+00,9.4497732553863815e-06,3.9646530446662082e-01,5.7331469704460258e-01
6.7500000000000001e-12,0.0000000000000000e+00,7.6219060505342656e-06,3.9317960900125715e-01,5.7456364661062020e-01
7.0000000000000001e-12,0.0000000000000000e+00,6.3871470303703185e-06,3.9284867679377372e-01,5.7729018001719179e-01
7.2500000000000000e-12,0.0000000000000000e+00,5.6321181147533588e-06,3.9495324900398332e-01,5.8158843628109558e-01
7.5000000000000000e-12,0.0000000000000000e+00,5.1670638413949508e-06,3.9821999772931244e-01,5.8682907553441932e-01
7.7499999999999991e-12,0.0000000000000000e+00,4.8068389807464866e-06,4.0131915003266211e-01,5.9212383070576113e-01
7.9999999999999998e-12,0.0000000000000000e+00,4.4238971330657973e-06,4.0336928126643773e-01,5.9671309154631302e-01
8.2500000000000006e-12,0.0000000000000000e+00,3.9661613598113470e-06,4.0412283745443961e-01,6.0018313692186376e-01
8.4999999999999997e-12,0.0000000000000000e+00,3.4458069275474712e-06,4.0386141518868213e-01,6.0250244794353258e-01
8.7500000000000005e-12,0.0000000000000000e+00,2.9119567822428117e-06,4.0312909936853830e-01,6.0392530734978012e-01
8.9999999999999996e-12,0.0000000000000000e+00,2.4207826157899737e-06,4.0245218480402545e-01,6.0483427437975756e-01
9.2500000000000004e-12,0.0000000000000000e+00,2.0130235895369689e-06,4.0215346124308704e-01,6.0558916183364420e-01
9.4999999999999995e-12,0.0000000000000000e+00,1.7035402835367239e-06,4.0230030215579277e-01,6.0642724554511040e-01
9.7500000000000003e-12,0.0000000000000000e+00,1.4825270286073728e-06,4.0276385479660565e-01,6.0743099788805499e-01
9.9999999999999994e-12,0.0000000000000000e+00,1.3245185999462027e-06,4.0333186963663037e-01,6.0855404501031396e-01
1.0250000000000000e-11,0.0000000000000000e+00,1.2000396816009523e-06,4.0381583287345546e-01,6.0968062444214610e-01
1.0499999999999999e-11,0.0000000000000000e+00,1.0853503457848133e-06,4.0411404614157409e-01,6.1068989931536766e-01
1.0750000000000000e-11,0.0000000000000000e+00,9.6763488927764161e-07,4.0422138496277010e-01,6.1150283627396806e-01
1.0999999999999999e-11,0.0000000000000000e+00,8.4518828939023724e-07,4.0419958585324012e-01,6.1210105162232054e-01
1.1250000000000000e-11,0.0000000000000000e+00,7.2393399725350494e-07,4.0413236760567284e-01,6.1251923710530165e-01
1.1499999999999999e-11,0.0000000000000000e+00,6.1245902506110800e-07,4.0408737307068021e-01,6.1282115604475917e-01
1.1750000000000000e-11,0.0000000000000000e+00,5.1765856394282969e-07,4.0409702883981224e-01,6.1307208123557522e-01
1.2000000000000001e-11,0.0000000000000000e+00,4.4229824359698015e-07,4.0415913404778653e-01,6.1331822794563895e-01
1.2250000000000000e-11,0.0000000000000000e+00,3.8478572189373864e-07,4.0425020686986485e-01,6.1357842831835852e-01
1.2500000000000000e-11,0.0000000000000000e+00,3.4059392921797580e-07,4.0434211397069292e-01,6.1384754278145703e-01
1.2750000000000000e-11,0.0000000000000000e+00,3.0435704662075539e-07,4.0441453082981454e-01,6.1410710326141660e-01
1.3000000000000000e-11,0.0000000000000000e+00,2.7169698238167229e-07,4.0445996897352793e-01,6.1433735857546723e-01
1.3249999999999999e-11,0.0000000000000000e+00,2.4020231796825615e-07,4.0448211469681322e-01,6.1452603784835280e-01
1.3500000000000000e-11,0.0000000000000000e+00,2.0945037023491038e-07,4.0449052720610867e-01,6.1467165782615296e-01
1.3749999999999999e-11,0.0000000000000000e+00,1.8034051483038668e-07,4.0449505337570485e-01,6.1478180225810020e-01
1.4000000000000000e-11,0.0000000000000000e+00,1.5417886035674051e-07,4.0450220129806980e-01,6.1486850271787918e-01
1.4249999999999999e-11,0.0000000000000000e+00,1.3191697431886183e-07,4.0451413216419224e-01,6.1494328631010686e-01
1.4500000000000000e-11,0.0000000000000000e+00,1.1377255215753854e-07,4.0452966606232044e-01,6.1501381685032253e-01
1.4750000000000001e-11,0.0000000000000000e+00,9.9252597241340177e-08,4.0454614268243039e-01,6.1508289404179228e-01
1.5000000000000000e-11,0.0000000000000000e+00,8.7445530523458543e-08,4.0456108773337413e-01,6.1514947082800397e-01
1.5249999999999999e-11,0.0000000000000000e+00,7.7390106752898994e-08,4.0457312139313156e-01,6.1521070242310294e-01
1.5499999999999998e-11,0.0000000000000000e+00,6.8359351487169768e-08,4.0458206640601146e-01,6.1526395643449860e-01
1.5750000000000001e-11,0.0000000000000000e+00,5.9979374238174604e-08,4.0458854748683393e-01,6.1530805735234861e-01
1.6000000000000000e-11,0.0000000000000000e+00,5.2189463752301904e-08,4.0459345555019505e-01,6.1534354981806882e-01
1.6249999999999999e-11,0.0000000000000000e+00,4.5107365303340818e-08,4.0459754687296218e-01,6.1537219994632031e-01
1.6500000000000001e-11,0.0000000000000000e+00,3.8879118488803369e-08,4.0460127519016709e-01,6.1539617004086156e-01
1.6750000000000000e-11,0.0000000000000000e+00,3.3573544449190982e-08,4.0460481515128383e-01,6.1541728567058529e-01
1.6999999999999999e-11,0.0000000000000000e+00,2.9145529844278502e-08,4.0460817438124663e-01,6.1543664384171270e-01
1.7249999999999999e-11,0.0000000000000000e+00,2.5458654808335293e-08,4.0461130256589600e-01,6.1545460098131055e-01
1.7500000000000001e-11,0.0000000000000000e+00,2.2338485706473677e-08,4.0461415311818705e-01,6.1547102246873198e-01
1.7750000000000000e-11,0.0000000000000000e+00,1.9625777057272856e-08,4.0461669876018830e-01,6.1548561490050835e-01
1.7999999999999999e-11,0.0000000000000000e+00,1.7209123355025388e-08,4.0461892521209791e-01,6.1549818996763361e-01
1.8249999999999998e-11,0.0000000000000000e+00,1.5031301706790778e-08,4.0462082586584519e-01,6.1550878531719433e-01
1.8500000000000001e-11,0.0000000000000000e+00,1.3075533085266827e-08,4.0462240605705108e-01,6.1551764730993419e-01
1.8750000000000000e-11,0.0000000000000000e+00,1.1343458017524946e-08,4.0462369199600723e-01,6.1552513145083088e-01
1.8999999999999999e-11,0.0000000000000000e+00,9.8357651670107922e-09,4.0462473448538339e-01,6.1553158832353716e-01
1.9249999999999998e-11,0.0000000000000000e+00,8.5416405163333256e-09,4.0462560152956351e-01,6.1553728462644597e-01
1.9500000000000001e-11,0.0000000000000000e+00,7.4377019806293957e-09,4.0462636177433237e-01,6.1554237782736088e-01
1.9750000000000000e-11,0.0000000000000000e+00,6.4932445133664239e-09,4.0462706659533915e-01,6.1554693562268270e-01
1.9999999999999999e-11,0.0000000000000000e+00,5.6773589984671719e-09,4.0462773932050183e-01,6.1555097717364748e-01
2.0250000000000001e-11,0.0000000000000000e+00,4.9643940494255732e-09,4.0462837598607809e-01,6.1555451296129982e-01
2.0500000000000000e-11,0.0000000000000000e+00,4.3361777083780735e-09,4.0462895612973460e-01,6.1555756907458992e-01
2.0749999999999999e-11,0.0000000000000000e+00,3.7812684367652182e-09,4.0462945775240672e-01,6.1556019300475895e-01
2.0999999999999999e-11,0.0000000000000000e+00,3.2925655615297026e-09,4.0462986962607783e-01,6.1556244625886369e-01
2.1250000000000001e-11,0.0000000000000000e+00,2.8647504092980827e-09,4.0463019643602771e-01,6.1556439216028047e-01
2.1500000000000000e-11,0.0000000000000000e+00,2.4925361464384806e-09,4.0463045613225335e-01,6.1556608578135830e-01
2.1749999999999999e-11,0.0000000000000000e+00,2.1700131461811571e-09,4.0463067225801574e-01,6.1556756931943779e-01
2.1999999999999998e-11,0.0000000000000000e+00,1.8908404623097894e-09,4.0463086551843624e-01,6.1556887269833960e-01
2.2250000000000001e-11,0.0000000000000000e+00,1.6488097718380671e-09,4.0463104820974755e-01,6.1557001715348525e-01
2.2500000000000000e-11,0.0000000000000000e+00,1.4383645516407382e-09,4.0463122310808119e-01,6.1557101927787738e-01
2.2749999999999999e-11,0.0000000000000000e+00,1.2548591501203526e-09,4.0463138620223221e-01,6.1557189388675881e-01
2.2999999999999998e-11,0.0000000000000000e+00,1.0945467122410752e-09,4.0463153123244172e-01,6.1557265525486449e-01
2.3250000000000000e-11,0.0000000000000000e+00,9.5440467354791749e-10,4.0463165377249660e-01,6.1557331714840757e-01
2.3500000000000000e-11,0.0000000000000000e+00,8.3192616998179814e-10,4.0463175335841634e-01,6.1557389237247095e-01
2.3749999999999999e-11,0.0000000000000000e+00,7.2495992513452968e-10,4.0463183335059927e-01,6.1557439239428047e-01
2.4000000000000001e-11,0.0000000000000000e+00,6.3161941316281554e-10,4.0463189921623571e-01,6.1557482725767099e-01
2.4250000000000000e-11,0.0000000000000000e+00,5.5024043673509129e-10,4.0463195636956645e-01,6.1557520572132784e-01
2.4499999999999999e-11,0.0000000000000000e+00,4.7935591106345521e-10,4.0463200857062998e-01,6.1557553544748844e-01
2.4749999999999999e-11,0.0000000000000000e+00,4.1766868817789763e-10,4.0463205737572649e-01,6.1557582311754477e-01
2.5000000000000001e-11,0.0000000000000000e+00,3.6402095991870100e-10,4.0463210256643334e-01,6.1557607446212992e-01
2.5250000000000000e-11,0.0000000000000000e+00,3.1736916459024519e-10,4.0463214310820433e-01,6.1557629427441529e-01
2.5499999999999999e-11,0.0000000000000000e+00,2.7677249908906403e-10,4.0463217810467278e-01,6.1557648648473684e-01
2.5749999999999998e-11,0.0000000000000000e+00,2.4139520355836084e-10,4.0463220737122091e-01,6.1557665432584530e-01
2.6000000000000001e-11,0.0000000000000000e+00,2.1051480160718893e-10,4.0463223151625877e-01,6.1557680055473196e-01
2.6250000000000000e-11,0.0000000000000000e+00,1.8352574082089989e-10,4.0463225165081601e-01,6.1557692766026506e-01
2.6499999999999999e-11,0.0000000000000000e+00,1.5993127209463636e-10,4.0463226896080767e-01,6.1557703799254204e-01
2.6749999999999998e-11,0.0000000000000000e+00,1.3932328030807383e-10,4.0463228436025389e-01,6.1557713378947099e-01
2.7000000000000000e-11,0.0000000000000000e+00,1.2135592296089342e-10,4.0463229834340331e-01,6.1557721712286129e-01
2.7250000000000000e-11,0.0000000000000000e+00,1.0572143098704805e-10,4.0463231103589747e-01,6.1557728981587190e-01
2.7499999999999999e-11,0.0000000000000000e+00,9.2134632968085978e-11,4.0463232236361507e-01,6.1557735338496700e-01
2.7749999999999998e-11,0.0000000000000000e+00,8.0328300617263289e-11,4.0463233223506889e-01,6.1557740903726743e-01
2.8000000000000000e-11,0.0000000000000000e+00,7.0056813989749769e-11,4.0463234066038489e-01,6.1557745772308725e-01
2.8249999999999999e-11,0.0000000000000000e+00,6.1102992646398774e-11,4.0463234778019830e-01,6.1557750021912505e-01
2.8499999999999999e-11,0.0000000000000000e+00,5.3283000821022384e-11,4.0463235382317519e-01,6.1557753720939101e-01
2.8750000000000001e-11,0.0000000000000000e+00,4.6446387173847748e-11,4.0463235903405131e-01,6.1557756933849006e-01
2.9000000000000000e-11,0.0000000000000000e+00,4.0471183131899695e-11,4.0463236361249971e-01,6.1557759722840821e-01
2.9250000000000002e-11,0.0000000000000000e+00,3.5256174787874151e-11,4.0463236768534461e-01,6.1557762146627804e-01
2.9500000000000002e-11,0.0000000000000000e+00,3.0713219083192521e-11,4.0463237131327223e-01,6.1557764257987835e-01
2.9750000000000001e-11,0.0000000000000000e+00,2.6761857653136276e-11,4.0463237451833234e-01,6.1557766101772060e-01
3.0000000000000000e-11,0.0000000000000000e+00,2.3327058918223054e-11,4.0463237731429746e-01,6.1557767714379052e-01
3.0249999999999999e-11,0.0000000000000000e+00,2.0339542250258048e-11,4.0463237972666455e-01,6.1557769124794870e-01
3.0499999999999998e-11,0.0000000000000000e+00,1.7737307311180549e-11,4.0463238179782612e-01,6.1557770356600705e-01
3.0749999999999997e-11,0.0000000000000000e+00,1.5466965501543692e-11,4.0463238358067305e-01,6.1557771430091002e-01
3.0999999999999996e-11,0.0000000000000000e+00,1.3483989442682961e-11,4.0463238512766769e-01,6.1557772363811547e-01
3.1250000000000002e-11,0.0000000000000000e+00,1.1751740040104785e-11,4.0463238648193189e-01,6.1557773175233055e-01
3.1500000000000001e-11,0.0000000000000000e+00,1.0239707539199644e-11,4.0463238767376264e-01,6.1557773880684974e-01
3.1750000000000000e-11,0.0000000000000000e+00,8.9216330282815595e-12,4.0463238872243940e-01,6.1557774494919293e-01
3.1999999999999999e-11,0.0000000000000000e+00,7.7740650373602087e-12,4.0463238964089687e-01,6.1557775030698558e-01
3.2249999999999998e-11,0.0000000000000000e+00,6.7755991071376290e-12,4.0463239044038291e-01,6.1557775498661926e-01
3.2499999999999998e-11,0.0000000000000000e+00,5.9067211136217877e-12,4.0463239113318411e-01,6.1557775907522394e-01
3.2749999999999997e-11,0.0000000000000000e+00,5.1499810433452932e-12,4.0463239173299725e-01,6.1557776264486885e-01
3.3000000000000002e-11,0.0000000000000000e+00,4.4901923452563244e-12,4.0463239225370340e-01,6.1557776575724188e-01
3.3250000000000002e-11,0.0000000000000000e+00,3.9144493228557440e-12,4.0463239270775392e-01,6.1557776846731882e-01
3.3500000000000001e-11,0.0000000000000000e+00,3.4119121439980075e-12,4.0463239310513449e-01,6.1557777082533283e-01
3.3750000000000000e-11,0.0000000000000000e+00,2.9734297676663815e-12,4.0463239345327723e-01,6.1557777287720072e-01
3.3999999999999999e-11,0.0000000000000000e+00,2.5911272095594659e-12,4.0463239375772164e-01,6.1557777466408958e-01
3.4249999999999998e-11,0.0000000000000000e+00,2.2580683684750811e-12,4.0463239402303430e-01,6.1557777622189414e-01
3.4499999999999997e-11,0.0000000000000000e+00,1.9680479052745752e-12,4.0463239425352460e-01,6.1557777758114773e-01
3.4749999999999996e-11,0.0000000000000000e+00,1.7155029668255492e-12,4.0463239445353105e-01,6.1557777876750364e-01
3.5000000000000002e-11,0.0000000000000000e+00,1.4954991553702384e-12,4.0463239462731476e-01,6.1557777980261763e-01
3.5250000000000001e-11,0.0000000000000000e+00,1.3037278977820840e-12,4.0463239477876622e-01,6.1557778070512070e-01
3.5500000000000000e-11,0.0000000000000000e+00,1.1364837919417614e-12,4.0463239491115188e-01,6.1557778149141440e-01
3.5749999999999999e-11,0.0000000000000000e+00,9.9060234580937052e-13,4.0463239502703680e-01,6.1557778217615799e-01
3.5999999999999998e-11,0.0000000000000000e+00,8.6337506287265222e-13,4.0463239512839400e-01,6.1557778277247388e-01
3.6249999999999998e-11,0.0000000000000000e+00,7.5245911995593644e-13,4.0463239521681715e-01,6.1557778329198898e-01
3.6499999999999997e-11,0.0000000000000000e+00,6.5580312179448820e-13,4.0463239529372819e-01,6.1557778374484473e-01
3.6750000000000002e-11,0.0000000000000000e+00,5.7159448616593322e-13,4.0463239536050022e-01,6.1557778413976572e-01
3.7000000000000001e-11,0.0000000000000000e+00,4.9822992110289177e-13,4.0463239541847662e-01,6.1557778448421085e-01
3.7250000000000001e-11,0.0000000000000000e+00,4.3429949427999330e-13,4.0463239546891749e-01,6.1557778478457870e-01
3.7500000000000000e-11,0.0000000000000000e+00,3.7857377160155883e-13,4.0463239551292862e-01,6.1557778504641492e-01
3.7749999999999999e-11,0.0000000000000000e+00,3.2998890965550472e-13,4.0463239555141756e-01,6.1557778527458296e-01
3.7999999999999998e-11,0.0000000000000000e+00,2.8762707129004006e-13,4.0463239558509806e-01,6.1557778547337694e-01
3.8249999999999997e-11,0.0000000000000000e+00,2.5069508736141188e-13,4.0463239561453357e-01,6.1557778564658794e-01
3.8499999999999996e-11,0.0000000000000000e+00,2.1850311848165000e-13,4.0463239564019565e-01,6.1557778579754219e-01
3.8750000000000002e-11,0.0000000000000000e+00,1.9044755518628053e-13,4.0463239566251297e-01,6.1557778592913326e-01
3.9000000000000001e-11,0.0000000000000000e+00,1.6599903343648392e-13,4.0463239568189602e-01,6.1557778604386337e-01
3.9250000000000000e-11,0.0000000000000000e+00,1.4469264240744388e-13,4.0463239569873743e-01,6.1557778614389236e-01
3.9499999999999999e-11,0.0000000000000000e+00,1.2612193223942628e-13,4.0463239571339776e-01,6.1557778623109138e-01
3.9749999999999998e-11,0.0000000000000000e+00,1.0993394485574720e-13,4.0463239572618970e-01,6.1557778630709148e-01
3.9999999999999998e-11,0.0000000000000000e+00,9.5821467884899593e-14,4.0463239573737075e-01,6.1557778637332183e-01
4.0249999999999997e-11,0.0000000000000000e+00,8.3519380850235601e-14,4.0463239574714710e-01,6.1557778643103767e-01
4.0500000000000002e-11,0.0000000000000000e+00,7.2796032177616915e-14,4.0463239575568583e-01,6.1557778648133898e-01
4.0750000000000001e-11,0.0000000000000000e+00,6.3449877689922602e-14,4.0463239576312893e-01,6.1557778652518547e-01
4.1000000000000001e-11,0.0000000000000000e+00,5.5304657577429771e-14,4.0463239576960508e-01,6.1557778656340967e-01
4.1250000000000000e-11,0.0000000000000000e+00,4.8205888739908652e-14,4.0463239577523463e-01,6.1557778659673346e-01
4.1499999999999999e-11,0.0000000000000000e+00,4.2018818652844730e-14,4.0463239578012999e-01,6.1557778662578277e-01
4.1749999999999998e-11,0.0000000000000000e+00,3.6625502319184639e-14,4.0463239578439303e-01,6.1557778665110219e-01
4.1999999999999997e-11,0.0000000000000000e+00,3.1923925354859900e-14,4.0463239578811172e-01,6.1557778667316798e-01
4.2249999999999996e-11,0.0000000000000000e+00,2.7825227092945546e-14,4.0463239579135957e-01,6.1557778669239749e-01
4.2500000000000002e-11,0.0000000000000000e+00,2.4252823669183862e-14,4.0463239579419685e-01,6.1557778670915619e-01
4.2750000000000001e-11,0.0000000000000000e+00,2.1138900364079482e-14,4.0463239579667332e-01,6.1557778672376340e-01
4.3000000000000000e-11,0.0000000000000000e+00,1.8425142364962886e-14,4.0463239579883187e-01,6.1557778673649699e-01
