time,"V(1200,0)","V(2200,0)","V(2201,0)","V(2202,0)","V(2203,0)","V(3200,0)","V(3201,0)","V(3202,0)","V(3203,0)","V(4000,0)","V(4001,0)","V(4002,0)","V(4003,0)","V(1002,0)"
0.0000000000000000e+00,0.0000000000000000e+00,0.0000000000000000e+00,0.0000000000000000e+00,0.0000000000000000e+00,0.0000000000000000e+00,0.0000000000000000e+00,0.0000000000000000e+00,0.0000000000000000e+00,0.0000000000000000e+00,0.0000000000000000e+00,0.0000000000000000e+00,0.0000000000000000e+00,0.0000000000000000e+00,0.0000000000000000e+00
2.4999999999999999e-13,1.9320877609804577e-06,1.9320877609804577e-06,1.9320877609804577e-06,1.9320877609804577e-06,1.9320877609804577e-06,1.9320877609804577e-06,1.9320877609804577e-06,1.9320877609804577e-06,1.9320877609804577e-06,0.0000000000000000e+00,0.0000000000000000e+00,0.0000000000000000e+00,0.0000000000000000e+00,0.0000000000000000e+00
4.9999999999999999e-13,4.0496942706255382e-06,4.0496942706255382e-06,4.0496942706255382e-06,4.0496942706255382e-06,4.0496942706255382e-06,4.0496942706255382e-06,4.0496942706255382e-06,4.0496942706255382e-06,4.0496942706255382e-06,0.0000000000000000e+00,0.0000000000000000e+00,0.0000000000000000e+00,0.0000000000000000e+00,0.0000000000000000e+00
7.5000000000000004e-13,9.3443388724189705e-06,9.3443388724189705e-06,9.3443388724189705e-06,9.3443388724189705e-06,9.3443388724189705e-06,9.3443388724189705e-06,9.3443388724189705e-06,9.3443388724189705e-06,9.3443388724189705e-06,0.0000000000000000e+00,0.0000000000000000e+00,0.0000000000000000e+00,0.0000000000000000e+00,0.0000000000000000e+00
9.9999999999999998e-13,1.7491642345051965e-05,1.7491642345051965e-05,1.7491642345051965e-05,1.7491642345051965e-05,1.7491642345051965e-05,1.7491642345051965e-05,1.7491642345051965e-05,1.7491642345051965e-05,1.7491642345051965e-05,0.0000000000000000e+00,0.0000000000000000e+00,0.0000000000000000e+00,0.0000000000000000e+00,0.0000000000000000e+00
1.2499999999999999e-12,2.7677130614000897e-05,2.7677130614000897e-05,2.7677130614000897e-05,2.7677130614000897e-05,2.7677130614000897e-05,2.7677130614000897e-05,2.7677130614000897e-05,2.7677130614000897e-05,2.7677130614000897e-05,0.0000000000000000e+00,0.0000000000000000e+00,0.0000000000000000e+00,0.0000000000000000e+00,0.0000000000000000e+00
1.5000000000000001e-12,3.5971675836833124e-05,3.5971675836833124e-05,3.5971675836833124e-05,3.5971675836833124e-05,3.5971675836833124e-05,3.5971675836833124e-05,3.5971675836833124e-05,3.5971675836833124e-05,3.5971675836833124e-05,0.0000000000000000e+00,0.0000000000000000e+00,0.0000000000000000e+00,0.0000000000000000e+00,0.0000000000000000e+00
1.7500000000000000e-12,4.0619749586643013e-05,4.0619749586643013e-05,4.0619749586643013e-05,4.0619749586643013e-05,4.0619749586643013e-05,4.0619749586643013e-05,4.0619749586643013e-05,4.0619749586643013e-05,4.0619749586643013e-05,0.0000000000000000e+00,0.0000000000000000e+00,0.0000000000000000e+00,0.0000000000000000e+00,0.0000000000000000e+00
2.0000000000000000e-12,4.2366420336139146e-05,4.2366420336139146e-05,4.2366420336139146e-05,4.2366420336139146e-05,4.2366420336139146e-05,4.2366420336139146e-05,4.2366420336139146e-05,4.2366420336139146e-05,4.2366420336139146e-05,0.0000000000000000e+00,0.0000000000000000e+00,0.0000000000000000e+00,0.0000000000000000e+00,0.0000000000000000e+00
2.2499999999999999e-12,4.1736153836676655e-05,4.1736153836676655e-05,4.1736153836676655e-05,4.1736153836676655e-05,4.1736153836676655e-05,4.1736153836676655e-05,4.1736153836676655e-05,4.1736153836676655e-05,4.1736153836676655e-05,0.0000000000000000e+00,0.0000000000000000e+00,0.0000000000000000e+00,0.0000000000000000e+00,0.0000000000000000e+00
2.4999999999999998e-12,3.9696595363002280e-05,3.9696595363002280e-05,3.9696595363002280e-05,3.9696595363002280e-05,3.9696595363002280e-05,3.9696595363002280e-05,3.9696595363002280e-05,3.9696595363002280e-05,3.9696595363002280e-05,0.0000000000000000e+00,0.0000000000000000e+00,0.0000000000000000e+00,0.0000000000000000e+00,0.0000000000000000e+00
2.7499999999999998e-12,3.7389190355124516e-05,3.7389190355124516e-05,3.7389190355124516e-05,3.7389190355124516e-05,3.7389190355124516e-05,3.7389190355124516e-05,3.7389190355124516e-05,3.7389190355124516e-05,3.7389190355124516e-05,0.0000000000000000e+00,0.0000000000000000e+00,0.0000000000000000e+00,0.0000000000000000e+00,0.0000000000000000e+00
3.0000000000000001e-12,3.5767869706680756e-05,3.5767869706680756e-05,3.5767869706680756e-05,3.5767869706680756e-05,3.5767869706680756e-05,3.5767869706680756e-05,3.5767869706680756e-05,3.5767869706680756e-05,3.5767869706680756e-05,0.0000000000000000e+00,0.0000000000000000e+00,0.0000000000000000e+00,0.0000000000000000e+00,0.0000000000000000e+00
3.2500000000000001e-12,3.5283723592780123e-05,3.5283723592780123e-05,3.5283723592780123e-05,3.5283723592780123e-05,3.5283723592780123e-05,3.5283723592780123e-05,3.5283723592780123e-05,3.5283723592780123e-05,3.5283723592780123e-05,0.0000000000000000e+00,0.0000000000000000e+00,0.0000000000000000e+00,0.0000000000000000e+00,0.0000000000000000e+00
3.5000000000000000e-12,3.5849533352277750e-05,3.5849533352277750e-05,3.5849533352277750e-05,3.5849533352277750e-05,3.5849533352277750e-05,3.5849533352277750e-05,3.5849533352277750e-05,3.5849533352277750e-05,3.5849533352277750e-05,0.0000000000000000e+00,0.0000000000000000e+00,0.0000000000000000e+00,0.0000000000000000e+00,0.0000000000000000e+00
3.7500000000000000e-12,3.7052930264244126e-05,3.7052930264244126e-05,3.7052930264244126e-05,3.7052930264244126e-05,3.7052930264244126e-05,3.7052930264244126e-05,3.7052930264244126e-05,3.7052930264244126e-05,3.7052930264244126e-05,0.0000000000000000e+00,0.0000000000000000e+00,0.0000000000000000e+00,0.0000000000000000e+00,0.0000000000000000e+00
3.9999999999999999e-12,3.8448850432533323e-05,3.8448850432533323e-05,3.8448850432533323e-05,3.8448850432533323e-05,3.8448850432533323e-05,3.8448850432533323e-05,3.8448850432533323e-05,3.8448850432533323e-05,3.8448850432533323e-05,0.0000000000000000e+00,0.0000000000000000e+00,0.0000000000000000e+00,0.0000000000000000e+00,0.0000000000000000e+00
4.2499999999999999e-12,3.9763850258596750e-05,3.9763850258596750e-05,3.9763850258596750e-05,3.9763850258596750e-05,3.9763850258596750e-05,3.9763850258596750e-05,3.9763850258596750e-05,3.9763850258596750e-05,3.9763850258596750e-05,0.0000000000000000e+00,0.0000000000000000e+00,0.0000000000000000e+00,0.0000000000000000e+00,0.0000000000000000e+00
4.4999999999999998e-12,4.0944382576530459e-05,4.0944382576530459e-05,4.0944382576530459e-05,4.0944382576530459e-05,4.0944382576530459e-05,4.0944382576530459e-05,4.0944382576530459e-05,4.0944382576530459e-05,4.0944382576530459e-05,0.0000000000000000e+00,0.0000000000000000e+00,0.0000000000000000e+00,0.0000000000000000e+00,0.0000000000000000e+00
4.7499999999999998e-12,4.2085370729770953e-05,4.2085370729770953e-05,4.2085370729770953e-05,4.2085370729770953e-05,4.2085370729770953e-05,4.2085370729770953e-05,4.2085370729770953e-05,4.2085370729770953e-05,4.2085370729770953e-05,0.0000000000000000e+00,0.0000000000000000e+00,0.0000000000000000e+00,0.0000000000000000e+00,0.0000000000000000e+00
4.9999999999999997e-12,4.3323379277516449e-05,4.3323379277516449e-05,4.3323379277516449e-05,4.3323379277516449e-05,4.3323379277516449e-05,4.3323379277516449e-05,4.3323379277516449e-05,4.3323379277516449e-05,4.3323379277516449e-05,0.0000000000000000e+00,0.0000000000000000e+00,0.0000000000000000e+00,0.0000000000000000e+00,0.0000000000000000e+00
5.2499999999999996e-12,4.2831642773589336e-05,4.2831642773589336e-05,4.2831642773589336e-05,4.2831642773589336e-05,4.2831642773589336e-05,4.2831642773589336e-05,4.2831642773589336e-05,4.2831642773589336e-05,4.2831642773589336e-05,0.0000000000000000e+00,0.0000000000000000e+00,0.0000000000000000e+00,0.0000000000000000e+00,1.9272178146739883e-06
5.4999999999999996e-12,3.9675011610522347e-05,3.9675011610522347e-05,4.3934534342599244e-05,3.9675011610522347e-05,3.9675011610522347e-05,3.9675011610522347e-05,3.9675011610522347e-05,3.9675011610522347e-05,3.9675011610522347e-05,0.0000000000000000e+00,0.0000000000000000e+00,0.0000000000000000e+00,0.0000000000000000e+00,5.9577474235890143e-06
5.7499999999999995e-12,3.3782191499435100e-05,3.3782191499435100e-05,4.3181603636370176e-05,3.3782191499435100e-05,3.3782191499435100e-05,3.3782191499435100e-05,3.3782191499435100e-05,3.3782191499435100e-05,3.3782191499435100e-05,0.0000000000000000e+00,0.0000000000000000e+00,0.0000000000000000e+00,0.0000000000000000e+00,1.1207703332875237e-05
6.0000000000000003e-12,2.5715485721374065e-05,2.5715485721374065e-05,4.0275682892169905e-05,2.5715485721374065e-05,2.5715485721374065e-05,2.5715485721374065e-05,2.5715485721374065e-05,2.5715485721374065e-05,2.5715485721374065e-05,0.0000000000000000e+00,0.0000000000000000e+00,0.0000000000000000e+00,0.0000000000000000e+00,1.9253243981326126e-05
6.2500000000000002e-12,1.7466947493286302e-05,2.1726470225363640e-05,4.0790322093831825e-05,1.7466947493286302e-05,1.7466947493286302e-05,1.7466947493286302e-05,1.7466947493286302e-05,1.7466947493286302e-05,1.7466947493286302e-05,0.0000000000000000e+00,0.0000000000000000e+00,0.0000000000000000e+00,0.0000000000000000e+00,2.9249110503819322e-05
6.5000000000000002e-12,9.8254555460149676e-06,1.9227994486962507e-05,4.1061114659670544e-05,9.8254555460149676e-06,9.8254555460149676e-06,9.8254555460149676e-06,9.8254555460149676e-06,9.8254555460149676e-06,9.8254555460149676e-06,0.0000000000000000e+00,0.0000000000000000e+00,0.0000000000000000e+00,0.0000000000000000e+00,3.7276292332587614e-05
6.7500000000000001e-12,3.4844484361262452e-06,1.8060124714774552e-05,3.9143261200774376e-05,3.4844484361262452e-06,3.4844484361262452e-06,3.4844484361262452e-06,3.4844484361262452e-06,3.4844484361262452e-06,7.7439711682031417e-06,0.0000000000000000e+00,0.0000000000000000e+00,0.0000000000000000e+00,0.0000000000000000e+00,4.1609827250339269e-05
7.0000000000000001e-12,-1.0728823461011498e-06,2.2282614268646563e-05,3.6144599545574894e-05,-1.0728823461011498e-06,-1.0728823461011498e-06,-1.0728823461011498e-06,-1.0728823461011498e-06,-1.0728823461011498e-06,8.3298942047249664e-06,0.0000000000000000e+00,0.0000000000000000e+00,0.0000000000000000e+00,0.0000000000000000e+00,4.3040895145889515e-05
7.2500000000000000e-12,-3.7004520732361660e-06,2.7568223403602781e-05,3.3430982192439282e-05,5.5907065884102277e-07,5.5907065884102277e-07,-3.7004520732361660e-06,-3.7004520732361660e-06,-3.7004520732361660e-06,1.0875482221539267e-05,0.0000000000000000e+00,0.0000000000000000e+00,0.0000000000000000e+00,0.0000000000000000e+00,4.2156278367464605e-05
7.5000000000000000e-12,-4.6502462198227883e-06,3.1013178991017011e-05,3.0596961664601897e-05,4.7522358083207530e-06,4.7522358083207530e-06,-4.6502462198227883e-06,-4.6502462198227883e-06,-4.6502462198227883e-06,1.8702597444573365e-05,0.0000000000000000e+00,0.0000000000000000e+00,0.0000000000000000e+00,0.0000000000000000e+00,3.9974050829174617e-05
7.7499999999999991e-12,-4.4529265389748931e-06,3.2720775851673792e-05,2.8326566847401157e-05,1.0121144573941049e-05,1.0121144573941049e-05,-4.4529265389748931e-06,-4.4529265389748931e-06,-4.4529265389748931e-06,2.6805280615865226e-05,1.9291033162937621e-06,0.0000000000000000e+00,0.0000000000000000e+00,0.0000000000000000e+00,3.7655896526309359e-05
7.9999999999999998e-12,-3.7045521586056378e-06,3.3341095415480026e-05,2.6818675393219257e-05,1.9643096435944765e-05,1.9643096435944765e-05,-3.7045521586056378e-06,-3.7045521586056378e-06,-3.7045521586056378e-06,3.1939120046301913e-05,5.9658688904130831e-06,0.0000000000000000e+00,0.0000000000000000e+00,0.0000000000000000e+00,3.6135878270828953e-05
8.2500000000000006e-12,-2.8781502698164014e-06,3.2272793814601012e-05,2.5831265555138613e-05,2.8371615950147017e-05,2.8371615941379338e-05,-2.8781502698164014e-06,1.3813724622606412e-06,1.3813724622606412e-06,3.4272190643641139e-05,1.1227401722059937e-05,0.0000000000000000e+00,0.0000000000000000e+00,0.0000000000000000e+00,3.5808782634838183e-05
8.4999999999999997e-12,-2.2361736981092723e-06,3.0474038970588255e-05,2.5077513791351899e-05,3.3399006338607207e-05,3.3399006222951987e-05,-2.2361736981092723e-06,7.1660298582318932e-06,7.1660298582318932e-06,3.4792803454244591e-05,1.9292873704484996e-05,0.0000000000000000e+00,0.0000000000000000e+00,0.0000000000000000e+00,3.6512068069518980e-05
8.7500000000000005e-12,-1.8482598735324836e-06,2.8654295511086810e-05,2.4428724973445531e-05,3.5298107440027774e-05,3.5298106649227616e-05,-1.8482598735324836e-06,1.2724542854735294e-05,1.2724542854735294e-05,3.3300932135152258e-05,2.9314683364453651e-05,0.0000000000000000e+00,1.9291033162937621e-06,0.0000000000000000e+00,3.7764722562702819e-05
8.9999999999999996e-12,-1.6688811313414420e-06,2.7066396218233571e-05,2.3924222219891915e-05,3.5363593459672321e-05,3.5363589736453783e-05,-1.6688811313414420e-06,2.1676533122228398e-05,2.1676533122228398e-05,3.1055603866442005e-05,3.7360514035521730e-05,0.0000000000000000e+00,5.9658688904130831e-06,0.0000000000000000e+00,3.9083074386040112e-05
9.2500000000000004e-12,-1.6191777643853813e-06,2.5748659251809421e-05,2.3673704370169875e-05,3.3540494995763773e-05,3.3540481469883975e-05,2.6403449676916610e-06,2.9629300409336930e-05,2.9629300418104757e-05,2.8908303255518789e-05,4.1696926089170026e-05,0.0000000000000000e+00,1.1227401722059937e-05,1.9286748490642347e-06,4.0195548521922339e-05
9.4999999999999995e-12,-1.6373791179901035e-06,2.4700768171530194e-05,2.3755564815894036e-05,3.1101214147739715e-05,3.1101173873903556e-05,7.7648833819312870e-06,3.4000153066215078e-05,3.4000153181869864e-05,2.7126099157697855e-05,4.3118568625238065e-05,0.0000000000000000e+00,1.9292873704484996e-05,5.9651761861738229e-06,4.1084008705037201e-05
9.7500000000000003e-12,-1.6914021340721146e-06,2.3954746406397137e-05,2.4162572194968338e-05,2.8849670751992853e-05,2.8849568833478921e-05,1.2881789968868061e-05,3.5462287032921676e-05,3.5462287823722274e-05,2.5702309770069868e-05,4.2222687241422207e-05,0.0000000000000000e+00,2.9314683364453651e-05,1.1229711060327847e-05,4.1892196785929658e-05
9.9999999999999994e-12,-1.7676949447472227e-06,2.3563188515031139e-05,2.4808116347066686e-05,2.7005534534523984e-05,2.7005310194915737e-05,2.1578894440221594e-05,3.5275957534853366e-05,3.5275961258091338e-05,2.4591106011390837e-05,4.0038606104218713e-05,0.0000000000000000e+00,3.7360514035521730e-05,1.9310069687304399e-05,4.2795665415797285e-05
1.0250000000000000e-11,-1.8555537257347389e-06,2.3559056257857875e-05,2.5573006793024416e-05,2.5541982182193285e-05,2.5541546239932438e-05,2.9395109282339578e-05,3.3315958670210058e-05,3.3315972196254709e-05,2.3804815661247367e-05,3.7730256638055818e-05,0.0000000000000000e+00,4.1696926089170026e-05,2.9374123841734414e-05,4.1985536217384824e-05
1.0499999999999999e-11,-1.9395012540535930e-06,2.3920999379923402e-05,2.2100738369752288e-05,2.4416278251008333e-05,2.4415523780234435e-05,3.3700774539813301e-05,3.0807646419713640e-05,3.0807686694414579e-05,2.3398542837625533e-05,3.6222178261137893e-05,0.0000000000000000e+00,4.3118568625238065e-05,3.7503848235172013e-05,3.8531542885707594e-05
1.0750000000000000e-11,-2.0018826073851958e-06,2.4567612999319338e-05,1.7023801829332805e-05,2.3649038143699940e-05,2.3647871190291368e-05,3.5153880681556700e-05,2.8541250323091408e-05,2.8541352253819002e-05,2.3412590539116890e-05,3.5894800478842132e-05,0.0000000000000000e+00,4.2222687241404379e-05,4.1967395031875402e-05,3.2380862343536807e-05
1.0999999999999999e-11,-2.0304522877886788e-06,2.5382599359784085e-05,9.4265144312061270e-06,2.3293806648710981e-05,2.3292197710799020e-05,3.5013013109594185e-05,2.6736944201772571e-05,2.6737168669164354e-05,2.3823195843041856e-05,3.6577767516262987e-05,0.0000000000000000e+00,4.0038606103930580e-05,4.3540281663811096e-05,2.4143908394669973e-05
1.1250000000000000e-11,-2.0241286540778866e-06,2.1996836169779773e-05,1.9887400006246491e-08,2.3375906482615308e-05,2.3373952415043880e-05,3.3143959918547398e-05,2.5360582045428494e-05,2.5361018830818639e-05,2.4533455186461827e-05,3.7795738716928807e-05,0.0000000000000000e+00,3.7730256635615773e-05,4.2783483159156415e-05,1.5883523402619169e-05
1.1499999999999999e-11,-1.9930399665719278e-06,1.6888057325552771e-05,-6.7746455614629347e-06,2.3849923589462286e-05,2.3847897531065518e-05,3.0748046811550124e-05,2.4345898064840499e-05,2.4346656534766640e-05,2.5405399657934359e-05,3.9081504181762380e-05,0.0000000000000000e+00,3.6222178246795775e-05,4.0689256260325239e-05,8.4610687968388473e-06
1.1750000000000000e-11,-1.9533207193537848e-06,1.0356010921709558e-05,-1.3672788043223420e-05,2.4601027579093991e-05,2.4599388010936443e-05,2.8583359931093960e-05,2.3680789455390275e-05,2.3681971281304607e-05,2.2052575144347101e-05,4.0180467632059444e-05,0.0000000000000000e+00,3.5894800413316747e-05,3.8402572848787167e-05,2.6083081932016079e-06
1.2000000000000001e-11,-1.9200227182971149e-06,1.7354755520522907e-06,-1.8336829092828455e-05,2.5484280694984050e-05,2.5483616062801135e-05,2.6843432268559553e-05,2.3391083083447315e-05,2.3392737755825187e-05,1.6946947618939399e-05,4.1081344700929545e-05,0.0000000000000000e+00,3.6577767268996567e-05,3.6857117729018296e-05,-1.2198638408524490e-06
1.2250000000000000e-11,-1.9018317533742552e-06,-4.3139284507154472e-06,-2.0259143230074746e-05,2.2118025114740092e-05,2.2118929574661218e-05,2.5483583867579051e-05,2.3490592688824367e-05,2.3492667112867028e-05,1.0394668963129822e-05,4.1920463992488770e-05,0.0000000000000000e+00,3.7795737916865951e-05,3.6465498545900815e-05,-2.9810179764371536e-06
1.2500000000000000e-11,-1.8995859391644696e-06,-9.8395863321273664e-06,-2.1828168798973709e-05,1.6986133995772546e-05,1.6989039353021885e-05,2.4445049224995862e-05,2.3940961941890707e-05,2.3943265441455187e-05,1.7440953209888296e-06,4.2856114579858071e-05,0.0000000000000000e+00,3.9081501905710326e-05,3.7096220325709552e-05,-3.0809228385233068e-06
1.2750000000000000e-11,-1.9083155037348164e-06,-1.2988949793846440e-05,-2.3710304535865518e-05,1.0407174935272704e-05,1.0412183712302496e-05,2.3734906726311421e-05,2.4646792070487389e-05,2.4649001005762192e-05,-4.4595691305839988e-06,4.2059951759091425e-05,0.0000000000000000e+00,4.0180461836834060e-05,3.8302033237718893e-05,-2.2040354617353442e-06
1.3000000000000000e-11,-1.9209792110468214e-06,-1.4188613660098990e-05,-2.5089310646694681e-05,1.7374703617753353e-06,1.7442376367013533e-06,2.3399857355354240e-05,2.5484818715574721e-05,2.5486535462675657e-05,-9.0137238850697116e-06,3.8588198373021450e-05,0.0000000000000000e+00,4.1081331319665085e-05,3.9623914164354712e-05,-1.0488701533485497e-06
1.3249999999999999e-11,-1.9318189464936917e-06,-1.6036510408561553e-05,-2.6310620545711439e-05,-4.4757591789794677e-06,-4.4680434263540852e-06,2.3468025687074537e-05,2.2088668252754360e-05,2.2089527880008414e-05,-1.1301167633871051e-05,3.2385541765237736e-05,0.0000000000000000e+00,4.1920435691249556e-05,4.0797896416413872e-05,-1.1070096354737159e-07
1.3500000000000000e-11,-1.9380437575597957e-06,-1.7273273069144501e-05,-2.7030413813853549e-05,-9.0322945517079748e-06,-9.0247873132565837e-06,2.3905482012441570e-05,1.6947360829456343e-05,1.6947149804120544e-05,-1.2883589378387274e-05,2.4073326013775202e-05,0.0000000000000000e+00,4.2856059324420394e-05,4.1795853098237311e-05,4.0228058000760033e-07
1.3749999999999999e-11,-1.9397012140648351e-06,-1.7388316522743711e-05,-2.6950065473028208e-05,-1.1446993529416942e-05,-1.1440961071796047e-05,2.4613056545200535e-05,1.0375851039531535e-05,1.0374589107635753e-05,-1.3092374110555381e-05,1.5736722589600059e-05,0.0000000000000000e+00,4.2059851555102703e-05,4.2740617502853430e-05,5.2169396505618120e-07
1.4000000000000000e-11,-1.9384443294156112e-06,-1.8194994011128510e-05,-2.6046641866519812e-05,-1.2043955851085089e-05,-1.2040481759731192e-05,2.5459993284049122e-05,1.7224355433165799e-06,1.7203865135900366e-06,-1.2640432294258771e-05,8.2616370435025790e-06,0.0000000000000000e+00,3.8588028880724076e-05,4.3786353723968922e-05,4.0255886886895548e-07
