time,"I(I0)","I(I1)","I(I2)","I(R0)"
0.0000000000000000e+00,0.0000000000000000e+00,0.0000000000000000e+00,0.0000000000000000e+00,0.0000000000000000e+00
4.9999999999999999e-13,0.0000000000000000e+00,0.0000000000000000e+00,0.0000000000000000e+00,1.6127464817891232e-07
9.9999999999999998e-13,0.0000000000000000e+00,0.0000000000000000e+00,0.0000000000000000e+00,7.6218025845831380e-07
1.5000000000000001e-12,1.4999999999999999e-04,0.0000000000000000e+00,0.0000000000000000e+00,1.8017445731139381e-06
2.0000000000000000e-12,2.9999999999999997e-04,0.0000000000000000e+00,0.0000000000000000e+00,3.0626066787389829e-06
2.4999999999999998e-12,4.4999999999999999e-04,0.0000000000000000e+00,0.0000000000000000e+00,4.0996457984353538e-06
3.0000000000000001e-12,5.9999999999999995e-04,0.0000000000000000e+00,0.0000000000000000e+00,4.7529196205674039e-06
3.5000000000000000e-12,5.9999999999999995e-04,0.0000000000000000e+00,0.0000000000000000e+00,5.2956653049338694e-06
3.9999999999999999e-12,5.9999999999999995e-04,0.0000000000000000e+00,0.0000000000000000e+00,5.7968057443343068e-06
4.4999999999999998e-12,4.4999999999999999e-04,0.0000000000000000e+00,0.0000000000000000e+00,6.2417467280328310e-06
4.9999999999999997e-12,2.9999999999999997e-04,0.0000000000000000e+00,0.0000000000000000e+00,6.6358635149623453e-06
5.4999999999999996e-12,1.4999999999999996e-04,0.0000000000000000e+00,0.0000000000000000e+00,6.8307539680964717e-06
6.0000000000000003e-12,0.0000000000000000e+00,0.0000000000000000e+00,0.0000000000000000e+00,6.4587236056556802e-06
6.5000000000000002e-12,0.0000000000000000e+00,0.0000000000000000e+00,0.0000000000000000e+00,5.4802056625445025e-06
7.0000000000000001e-12,0.0000000000000000e+00,0.0000000000000000e+00,0.0000000000000000e+00,4.4435338338995042e-06
7.5000000000000000e-12,0.0000000000000000e+00,0.0000000000000000e+00,0.0000000000000000e+00,3.7240900089377741e-06
7.9999999999999998e-12,0.0000000000000000e+00,0.0000000000000000e+00,0.0000000000000000e+00,3.1751943369764963e-06
8.4999999999999997e-12,0.0000000000000000e+00,0.0000000000000000e+00,0.0000000000000000e+00,2.6538464135354676e-06
8.9999999999999996e-12,0.0000000000000000e+00,0.0000000000000000e+00,0.0000000000000000e+00,2.1982373927990012e-06
9.4999999999999995e-12,0.0000000000000000e+00,0.0000000000000000e+00,0.0000000000000000e+00,1.8232483948556998e-06
9.9999999999999994e-12,0.0000000000000000e+00,0.0000000000000000e+00,0.0000000000000000e+00,1.5088654027626106e-06
1.0499999999999999e-11,0.0000000000000000e+00,0.0000000000000000e+00,0.0000000000000000e+00,1.2493358723329131e-06
1.0999999999999999e-11,0.0000000000000000e+00,0.0000000000000000e+00,0.0000000000000000e+00,1.0468835723189174e-06
1.1499999999999999e-11,0.0000000000000000e+00,0.0000000000000000e+00,0.0000000000000000e+00,9.1102288952577978e-07
1.2000000000000001e-11,0.0000000000000000e+00,0.0000000000000000e+00,0.0000000000000000e+00,8.4584219555534411e-07
1.2500000000000000e-11,0.0000000000000000e+00,0.0000000000000000e+00,0.0000000000000000e+00,8.2802249277669968e-07
1.3000000000000000e-11,0.0000000000000000e+00,0.0000000000000000e+00,0.0000000000000000e+00,8.1402352531519955e-07
1.3500000000000000e-11,0.0000000000000000e+00,0.0000000000000000e+00,0.0000000000000000e+00,7.7092367286723447e-07
1.4000000000000000e-11,0.0000000000000000e+00,0.0000000000000000e+00,0.0000000000000000e+00,6.9578368610922784e-07
1.4500000000000000e-11,0.0000000000000000e+00,0.0000000000000000e+00,0.0000000000000000e+00,6.0834609072011064e-07
1.5000000000000000e-11,0.0000000000000000e+00,0.0000000000000000e+00,0.0000000000000000e+00,5.2959921024722485e-07
1.5499999999999998e-11,0.0000000000000000e+00,0.0000000000000000e+00,0.0000000000000000e+00,4.6453603395787490e-07
1.6000000000000000e-11,0.0000000000000000e+00,0.0000000000000000e+00,0.0000000000000000e+00,3.9720749888008663e-07
1.6500000000000001e-11,0.0000000000000000e+00,0.0000000000000000e+00,0.0000000000000000e+00,3.0000024946479916e-07
1.6999999999999999e-11,0.0000000000000000e+00,0.0000000000000000e+00,0.0000000000000000e+00,1.5836526980180946e-07
1.7500000000000001e-11,0.0000000000000000e+00,0.0000000000000000e+00,0.0000000000000000e+00,-4.7135573493175847e-09
1.7999999999999999e-11,0.0000000000000000e+00,0.0000000000000000e+00,0.0000000000000000e+00,-1.3818442105383027e-07
1.8500000000000001e-11,0.0000000000000000e+00,0.0000000000000000e+00,0.0000000000000000e+00,-2.0763832431691201e-07
1.8999999999999999e-11,0.0000000000000000e+00,0.0000000000000000e+00,0.0000000000000000e+00,-2.2322400632842311e-07
1.9500000000000001e-11,0.0000000000000000e+00,0.0000000000000000e+00,0.0000000000000000e+00,-2.1768665750738082e-07
1.9999999999999999e-11,0.0000000000000000e+00,0.0000000000000000e+00,0.0000000000000000e+00,-2.1056274865923099e-07
2.0500000000000000e-11,0.0000000000000000e+00,0.0000000000000000e+00,0.0000000000000000e+00,-1.9959970577380219e-07
2.0999999999999999e-11,0.0000000000000000e+00,0.0000000000000000e+00,0.0000000000000000e+00,-1.7365720205370914e-07
2.1500000000000000e-11,1.4999999999999999e-04,0.0000000000000000e+00,0.0000000000000000e+00,-1.3235538343542301e-07
2.1999999999999998e-11,2.9999999999999997e-04,0.0000000000000000e+00,0.0000000000000000e+00,-9.9760999169092392e-08
2.2500000000000000e-11,4.4999999999999999e-04,0.0000000000000000e+00,0.0000000000000000e+00,-1.0965994863285500e-07
2.2999999999999998e-11,5.9999999999999995e-04,0.0000000000000000e+00,0.0000000000000000e+00,-1.7275076389442595e-07
2.3500000000000000e-11,5.9999999999999995e-04,0.0000000000000000e+00,0.0000000000000000e+00,-2.6620826213861646e-07
2.4000000000000001e-11,5.9999999999999995e-04,0.0000000000000000e+00,0.0000000000000000e+00,-3.5296783350384902e-07
2.4499999999999999e-11,3.9999999999999996e-04,0.0000000000000000e+00,0.0000000000000000e+00,-4.0592207393074778e-07
2.5000000000000001e-11,1.9999999999999998e-04,0.0000000000000000e+00,0.0000000000000000e+00,-4.1967064248069760e-07
2.5499999999999999e-11,0.0000000000000000e+00,0.0000000000000000e+00,0.0000000000000000e+00,-4.0801171361594609e-07
2.6000000000000001e-11,0.0000000000000000e+00,0.0000000000000000e+00,0.0000000000000000e+00,-3.9232022144501588e-07
2.6499999999999999e-11,0.0000000000000000e+00,0.0000000000000000e+00,0.0000000000000000e+00,-3.8298649296633838e-07
2.7000000000000000e-11,0.0000000000000000e+00,0.0000000000000000e+00,0.0000000000000000e+00,-3.6358991072507871e-07
2.7499999999999999e-11,0.0000000000000000e+00,0.0000000000000000e+00,0.0000000000000000e+00,-3.0258630118454523e-07
2.8000000000000000e-11,0.0000000000000000e+00,0.0000000000000000e+00,0.0000000000000000e+00,-1.8983710817561376e-07
2.8499999999999999e-11,0.0000000000000000e+00,0.0000000000000000e+00,0.0000000000000000e+00,-5.2006855328497900e-08
2.9000000000000000e-11,0.0000000000000000e+00,0.0000000000000000e+00,0.0000000000000000e+00,7.2836872504002674e-08
2.9500000000000002e-11,0.0000000000000000e+00,0.0000000000000000e+00,0.0000000000000000e+00,1.6333175614131766e-07
3.0000000000000000e-11,0.0000000000000000e+00,0.0000000000000000e+00,0.0000000000000000e+00,2.1745280794153993e-07
3.0499999999999998e-11,0.0000000000000000e+00,9.9999999999999991e-05,9.9999999999999991e-05,2.4341623729441102e-07
3.0999999999999996e-11,0.0000000000000000e+00,1.9999999999999998e-04,1.9999999999999998e-04,2.5192189781577976e-07
3.1500000000000001e-11,0.0000000000000000e+00,2.9999999999999997e-04,2.9999999999999997e-04,2.5104215026359974e-07
3.1999999999999999e-11,0.0000000000000000e+00,3.9999999999999996e-04,3.9999999999999996e-04,2.4818635985499170e-07
3.2499999999999998e-11,0.0000000000000000e+00,5.0000000000000001e-04,5.0000000000000001e-04,2.5497364059823770e-07
3.3000000000000002e-11,0.0000000000000000e+00,5.9999999999999995e-04,5.9999999999999995e-04,2.8471287250367655e-07
3.3500000000000001e-11,0.0000000000000000e+00,5.0000000000000001e-04,5.0000000000000001e-04,3.4538645412139877e-07
3.3999999999999999e-11,0.0000000000000000e+00,3.9999999999999996e-04,3.9999999999999996e-04,4.3688668738942614e-07
3.4499999999999997e-11,0.0000000000000000e+00,2.9999999999999997e-04,2.9999999999999997e-04,5.5513988477206061e-07
3.5000000000000002e-11,0.0000000000000000e+00,1.9999999999999998e-04,1.9999999999999998e-04,7.0087826117401821e-07
3.5500000000000000e-11,0.0000000000000000e+00,9.9999999999999937e-05,9.9999999999999937e-05,8.7458970865858611e-07
3.5999999999999998e-11,0.0000000000000000e+00,0.0000000000000000e+00,0.0000000000000000e+00,1.0249611981989848e-06
3.6499999999999997e-11,0.0000000000000000e+00,0.0000000000000000e+00,0.0000000000000000e+00,9.7337411233596500e-07
3.7000000000000001e-11,0.0000000000000000e+00,0.0000000000000000e+00,0.0000000000000000e+00,4.6834482914594866e-07
3.7500000000000000e-11,0.0000000000000000e+00,0.0000000000000000e+00,0.0000000000000000e+00,-4.9711880935158624e-07
3.7999999999999998e-11,0.0000000000000000e+00,0.0000000000000000e+00,0.0000000000000000e+00,-1.4005460304396991e-06
3.8499999999999996e-11,0.0000000000000000e+00,0.0000000000000000e+00,0.0000000000000000e+00,-1.5415634959278573e-06
3.9000000000000001e-11,0.0000000000000000e+00,0.0000000000000000e+00,0.0000000000000000e+00,-8.6852693125243423e-07
3.9499999999999999e-11,0.0000000000000000e+00,0.0000000000000000e+00,0.0000000000000000e+00,-1.2360080749350682e-07
3.9999999999999998e-11,0.0000000000000000e+00,0.0000000000000000e+00,0.0000000000000000e+00,6.4947278453456953e-08
4.0500000000000002e-11,0.0000000000000000e+00,0.0000000000000000e+00,0.0000000000000000e+00,-1.3219525433904979e-07
4.1000000000000001e-11,0.0000000000000000e+00,0.0000000000000000e+00,0.0000000000000000e+00,-2.0460755630028155e-07
4.1499999999999999e-11,1.4999999999999999e-04,0.0000000000000000e+00,0.0000000000000000e+00,-4.3390600007203942e-08
4.1999999999999997e-11,2.9999999999999997e-04,0.0000000000000000e+00,0.0000000000000000e+00,9.7462934466412038e-08
4.2500000000000002e-11,4.4999999999999999e-04,0.0000000000000000e+00,0.0000000000000000e+00,8.6884409841728073e-08
4.3000000000000000e-11,5.9999999999999995e-04,0.0000000000000000e+00,0.0000000000000000e+00,2.9686879181361193e-08
4.3499999999999998e-11,5.9999999999999995e-04,0.0000000000000000e+00,0.0000000000000000e+00,2.4553965490274348e-08
4.3999999999999997e-11,5.9999999999999995e-04,0.0000000000000000e+00,0.0000000000000000e+00,4.8730824849687328e-08
4.4500000000000001e-11,4.4999999999999999e-04,0.0000000000000000e+00,0.0000000000000000e+00,5.0110443023363295e-08
4.5000000000000000e-11,2.9999999999999997e-04,0.0000000000000000e+00,0.0000000000000000e+00,2.1209125897436673e-08
4.5499999999999998e-11,1.4999999999999996e-04,0.0000000000000000e+00,0.0000000000000000e+00,-1.9671856333966962e-08
4.5999999999999996e-11,0.0000000000000000e+00,0.0000000000000000e+00,0.0000000000000000e+00,-5.9570147644555347e-08
4.6500000000000001e-11,0.0000000000000000e+00,0.0000000000000000e+00,0.0000000000000000e+00,-9.5036256174679085e-08
4.6999999999999999e-11,0.0000000000000000e+00,0.0000000000000000e+00,0.0000000000000000e+00,-1.2685911403441860e-07
4.7499999999999998e-11,0.0000000000000000e+00,0.0000000000000000e+00,0.0000000000000000e+00,-1.5542948460727224e-07
4.8000000000000002e-11,0.0000000000000000e+00,0.0000000000000000e+00,0.0000000000000000e+00,-1.7801751509810051e-07
4.8500000000000001e-11,0.0000000000000000e+00,0.0000000000000000e+00,0.0000000000000000e+00,-1.9000549579901884e-07
4.8999999999999999e-11,0.0000000000000000e+00,0.0000000000000000e+00,0.0000000000000000e+00,-1.8644428808482700e-07
4.9499999999999997e-11,0.0000000000000000e+00,0.0000000000000000e+00,0.0000000000000000e+00,-1.6126752789044639e-07
5.0000000000000002e-11,0.0000000000000000e+00,0.0000000000000000e+00,0.0000000000000000e+00,-1.0770053369312844e-07
5.0500000000000000e-11,0.0000000000000000e+00,0.0000000000000000e+00,0.0000000000000000e+00,-2.1130328153916140e-08
5.0999999999999998e-11,0.0000000000000000e+00,0.0000000000000000e+00,0.0000000000000000e+00,9.9013470723021565e-08
5.1499999999999997e-11,0.0000000000000000e+00,0.0000000000000000e+00,0.0000000000000000e+00,2.4992575815965373e-07
5.2000000000000001e-11,0.0000000000000000e+00,0.0000000000000000e+00,0.0000000000000000e+00,4.2921848377961879e-07
5.2500000000000000e-11,0.0000000000000000e+00,0.0000000000000000e+00,0.0000000000000000e+00,6.3765108559418944e-07
5.2999999999999998e-11,0.0000000000000000e+00,0.0000000000000000e+00,0.0000000000000000e+00,8.5612266063145669e-07
5.3499999999999996e-11,0.0000000000000000e+00,0.0000000000000000e+00,0.0000000000000000e+00,9.7782425598255608e-07
5.4000000000000001e-11,0.0000000000000000e+00,0.0000000000000000e+00,0.0000000000000000e+00,7.6912035929049538e-07
5.4499999999999999e-11,0.0000000000000000e+00,0.0000000000000000e+00,0.0000000000000000e+00,3.5137485268073995e-08
5.4999999999999997e-11,0.0000000000000000e+00,0.0000000000000000e+00,0.0000000000000000e+00,-1.0114753874017028e-06
5.5499999999999996e-11,0.0000000000000000e+00,0.0000000000000000e+00,0.0000000000000000e+00,-1.6684654654349105e-06
5.6000000000000000e-11,0.0000000000000000e+00,0.0000000000000000e+00,0.0000000000000000e+00,-1.3827454679988551e-06
5.6499999999999999e-11,0.0000000000000000e+00,0.0000000000000000e+00,0.0000000000000000e+00,-4.5945207595919288e-07
5.6999999999999997e-11,0.0000000000000000e+00,0.0000000000000000e+00,0.0000000000000000e+00,2.5689241515032293e-07
5.7500000000000002e-11,0.0000000000000000e+00,0.0000000000000000e+00,0.0000000000000000e+00,3.8691418297373769e-07
5.8000000000000000e-11,0.0000000000000000e+00,0.0000000000000000e+00,0.0000000000000000e+00,2.7694456789912864e-07
5.8500000000000005e-11,0.0000000000000000e+00,0.0000000000000000e+00,0.0000000000000000e+00,3.0240532472921479e-07
5.9000000000000003e-11,0.0000000000000000e+00,0.0000000000000000e+00,0.0000000000000000e+00,3.9336248652179807e-07
5.9500000000000001e-11,0.0000000000000000e+00,0.0000000000000000e+00,0.0000000000000000e+00,3.2546813225486254e-07
6.0000000000000000e-11,0.0000000000000000e+00,0.0000000000000000e+00,0.0000000000000000e+00,1.0496333007423758e-07
6.0499999999999998e-11,0.0000000000000000e+00,0.0000000000000000e+00,0.0000000000000000e+00,-8.5365340330326477e-08
6.0999999999999996e-11,0.0000000000000000e+00,0.0000000000000000e+00,0.0000000000000000e+00,-1.3021728969855069e-07
6.1499999999999994e-11,1.4999999999999999e-04,0.0000000000000000e+00,0.0000000000000000e+00,-6.2346308387128865e-08
6.1999999999999993e-11,2.9999999999999997e-04,0.0000000000000000e+00,0.0000000000000000e+00,2.2583200265922915e-08
6.2500000000000004e-11,4.4999999999999999e-04,0.0000000000000000e+00,0.0000000000000000e+00,6.9916101062199679e-08
6.3000000000000002e-11,5.9999999999999995e-04,0.0000000000000000e+00,0.0000000000000000e+00,9.2173215030444296e-08
6.3500000000000000e-11,5.9999999999999995e-04,0.0000000000000000e+00,0.0000000000000000e+00,1.2112065715611409e-07
6.3999999999999999e-11,5.9999999999999995e-04,0.0000000000000000e+00,0.0000000000000000e+00,1.7268790291764043e-07
6.4499999999999997e-11,4.4999999999999999e-04,0.0000000000000000e+00,0.0000000000000000e+00,2.6287375592008810e-07
6.4999999999999995e-11,2.9999999999999997e-04,0.0000000000000000e+00,0.0000000000000000e+00,4.1437904234703311e-07
6.5499999999999994e-11,1.4999999999999996e-04,0.0000000000000000e+00,0.0000000000000000e+00,6.1390772637450400e-07
6.6000000000000005e-11,0.0000000000000000e+00,0.0000000000000000e+00,0.0000000000000000e+00,7.5418658530254106e-07
6.6500000000000003e-11,0.0000000000000000e+00,0.0000000000000000e+00,0.0000000000000000e+00,6.3312174366515032e-07
6.7000000000000001e-11,0.0000000000000000e+00,0.0000000000000000e+00,0.0000000000000000e+00,9.2347591959403686e-08
6.7500000000000000e-11,0.0000000000000000e+00,0.0000000000000000e+00,0.0000000000000000e+00,-7.4182429911130721e-07
6.7999999999999998e-11,0.0000000000000000e+00,0.0000000000000000e+00,0.0000000000000000e+00,-1.4018852781064259e-06
6.8499999999999996e-11,0.0000000000000000e+00,0.0000000000000000e+00,0.0000000000000000e+00,-1.4463292971384288e-06
6.8999999999999994e-11,0.0000000000000000e+00,0.0000000000000000e+00,0.0000000000000000e+00,-9.2466165011370689e-07
6.9499999999999993e-11,0.0000000000000000e+00,0.0000000000000000e+00,0.0000000000000000e+00,-3.2387315987045915e-07
7.0000000000000004e-11,0.0000000000000000e+00,0.0000000000000000e+00,0.0000000000000000e+00,-2.8979766073164096e-08
7.0500000000000002e-11,0.0000000000000000e+00,0.0000000000000000e+00,0.0000000000000000e+00,6.0724059141685898e-09
7.1000000000000000e-11,0.0000000000000000e+00,0.0000000000000000e+00,0.0000000000000000e+00,4.6838639631397398e-08
7.1499999999999999e-11,0.0000000000000000e+00,0.0000000000000000e+00,0.0000000000000000e+00,2.2675787802863499e-07
7.1999999999999997e-11,0.0000000000000000e+00,0.0000000000000000e+00,0.0000000000000000e+00,4.8235486924483012e-07
7.2499999999999995e-11,0.0000000000000000e+00,0.0000000000000000e+00,0.0000000000000000e+00,7.1858365941021976e-07
7.2999999999999993e-11,0.0000000000000000e+00,0.0000000000000000e+00,0.0000000000000000e+00,9.0564014988537158e-07
7.3500000000000005e-11,0.0000000000000000e+00,0.0000000000000000e+00,0.0000000000000000e+00,9.8309064244991669e-07
7.4000000000000003e-11,0.0000000000000000e+00,0.0000000000000000e+00,0.0000000000000000e+00,7.5227417161436304e-07
7.4500000000000001e-11,0.0000000000000000e+00,0.0000000000000000e+00,0.0000000000000000e+00,4.6868434895264359e-08
7.5000000000000000e-11,0.0000000000000000e+00,0.0000000000000000e+00,0.0000000000000000e+00,-8.8033927563205559e-07
7.5499999999999998e-11,0.0000000000000000e+00,0.0000000000000000e+00,0.0000000000000000e+00,-1.3589047408874752e-06
7.5999999999999996e-11,0.0000000000000000e+00,0.0000000000000000e+00,0.0000000000000000e+00,-1.0061073809510332e-06
7.6499999999999994e-11,0.0000000000000000e+00,0.0000000000000000e+00,0.0000000000000000e+00,-2.8764921992243432e-07
7.6999999999999993e-11,0.0000000000000000e+00,0.0000000000000000e+00,0.0000000000000000e+00,1.3460070704486678e-08
7.7500000000000004e-11,0.0000000000000000e+00,0.0000000000000000e+00,0.0000000000000000e+00,-2.3328399132189103e-07
7.8000000000000002e-11,0.0000000000000000e+00,0.0000000000000000e+00,0.0000000000000000e+00,-4.8351721775628691e-07
7.8500000000000000e-11,0.0000000000000000e+00,0.0000000000000000e+00,0.0000000000000000e+00,-3.5844479713657947e-07
7.8999999999999999e-11,0.0000000000000000e+00,0.0000000000000000e+00,0.0000000000000000e+00,-4.6080709436892147e-08
7.9499999999999997e-11,0.0000000000000000e+00,0.0000000000000000e+00,0.0000000000000000e+00,1.3853161725452271e-07
7.9999999999999995e-11,0.0000000000000000e+00,0.0000000000000000e+00,0.0000000000000000e+00,1.7285740837800258e-07
8.0499999999999993e-11,0.0000000000000000e+00,0.0000000000000000e+00,0.0000000000000000e+00,1.9453655154853372e-07
8.1000000000000005e-11,0.0000000000000000e+00,0.0000000000000000e+00,0.0000000000000000e+00,2.4038723776624377e-07
8.1500000000000003e-11,1.4999999999999999e-04,0.0000000000000000e+00,0.0000000000000000e+00,2.5810569641044816e-07
8.2000000000000001e-11,2.9999999999999997e-04,0.0000000000000000e+00,0.0000000000000000e+00,2.2743186423697658e-07
8.2499999999999999e-11,4.4999999999999999e-04,0.0000000000000000e+00,0.0000000000000000e+00,1.7312662757280265e-07
8.2999999999999998e-11,5.9999999999999995e-04,0.0000000000000000e+00,0.0000000000000000e+00,1.2221561763274984e-07
8.3499999999999996e-11,5.9999999999999995e-04,0.0000000000000000e+00,0.0000000000000000e+00,8.9266649836790425e-08
8.3999999999999994e-11,5.9999999999999995e-04,0.0000000000000000e+00,0.0000000000000000e+00,7.4884473695044723e-08
8.4499999999999993e-11,4.4999999999999999e-04,0.0000000000000000e+00,0.0000000000000000e+00,6.8619384444471120e-08
8.5000000000000004e-11,2.9999999999999997e-04,0.0000000000000000e+00,0.0000000000000000e+00,6.3420618267070481e-08
8.5500000000000002e-11,1.4999999999999996e-04,0.0000000000000000e+00,0.0000000000000000e+00,6.3722277133054919e-08
8.6000000000000000e-11,0.0000000000000000e+00,0.0000000000000000e+00,0.0000000000000000e+00,8.1094666798723540e-08
