time,"V(L1)","I(L1)"
0.0000000000000000e+00,0.0000000000000000e+00,-0.0000000000000000e+00
2.4999999999999999e-13,7.8536586559103366e-02,9.8170733198879212e-15
4.9999999999999999e-13,1.5705379539064149e-01,3.9265871063606023e-14
7.5000000000000004e-13,2.3553225354821331e-01,8.8339127180962866e-14
9.9999999999999998e-13,3.1395259764656691e-01,1.5702473358031039e-13
1.2499999999999999e-12,3.9229547863922476e-01,2.4530574311603433e-13
1.5000000000000001e-12,4.7054156659257151e-01,3.5316037377000888e-13
1.7500000000000000e-12,5.4867155545522672e-01,4.8056201402598362e-13
2.0000000000000000e-12,6.2666616782152096e-01,6.2747922943557703e-13
2.2499999999999999e-12,7.0450615968791375e-01,7.9387577037425640e-13
2.4999999999999998e-12,7.8217232520115421e-01,9.7971058098538985e-13
2.7499999999999998e-12,8.5964550139704798e-01,1.1849378093101651e-12
3.0000000000000001e-12,9.3690657292862289e-01,1.4095068186008739e-12
3.2500000000000001e-12,1.0139364767825620e+00,1.6533621998147721e-12
3.5000000000000000e-12,1.0907162069827145e+00,1.9164437852854315e-12
3.7500000000000000e-12,1.1672268192795250e+00,2.1986866635682116e-12
3.9999999999999999e-12,1.2434494358242771e+00,2.5000211954561866e-12
4.2499999999999999e-12,1.3193652498268635e+00,2.8203730311625793e-12
4.4999999999999998e-12,1.3949555301961487e+00,3.1596631286654559e-12
4.7499999999999998e-12,1.4702016261615158e+00,3.5178077732101640e-12
4.9999999999999997e-12,1.5450849718747386e+00,3.8947185979646960e-12
5.2499999999999996e-12,1.6195870909907470e+00,4.2903026058228813e-12
5.4999999999999996e-12,1.6936896012264544e+00,4.7044621923500313e-12
5.7499999999999995e-12,1.7673742188962889e+00,5.1370951698653745e-12
6.0000000000000003e-12,1.8406227634233883e+00,5.5880947926553339e-12
6.2500000000000002e-12,1.9134171618254485e+00,6.0573497833114386e-12
6.5000000000000002e-12,1.9857394531738999e+00,6.5447443601863572e-12
6.7500000000000001e-12,2.0575717930255477e+00,7.0501582659612877e-12
7.0000000000000001e-12,2.1288964578253644e+00,7.5734667973176526e-12
7.2500000000000000e-12,2.1996958492795757e+00,8.1145408357057689e-12
7.5000000000000000e-12,2.2699524986977320e+00,8.6732468792029324e-12
7.7499999999999991e-12,2.3396490713028726e+00,9.2494470754530077e-12
7.9999999999999998e-12,2.4087683705085698e+00,9.8429992556794378e-12
8.2500000000000006e-12,2.4772933421620467e+00,1.0453756969763265e-11
8.4999999999999997e-12,2.5452070787518464e+00,1.1081569522377502e-11
8.7500000000000005e-12,2.6124928235797613e+00,1.1726282010168953e-11
8.9999999999999996e-12,2.6791339748949641e+00,1.2387735359978294e-11
9.2500000000000004e-12,2.7451140899906719e+00,1.3065766368088998e-11
9.4999999999999995e-12,2.8104168892606376e+00,1.3760207740495412e-11
9.7500000000000003e-12,2.8750262602164129e+00,1.4470888134180043e-11
9.9999999999999994e-12,2.9389262614623393e+00,1.5197632199389886e-11
1.0250000000000000e-11,3.0021011266294524e+00,1.5940260622901362e-11
1.0499999999999999e-11,3.0645352682648559e+00,1.6698590172263149e-11
1.0750000000000000e-11,3.1262132816785622e+00,1.7472433741006075e-11
1.0999999999999999e-11,3.1871199487434039e+00,1.8261600394808821e-11
1.1250000000000000e-11,3.2472402416509603e+00,1.9065895418608117e-11
1.1499999999999999e-11,3.3065593266182134e+00,1.9885120364641763e-11
1.1750000000000000e-11,3.3650625675489163e+00,2.0719073101412655e-11
1.2000000000000001e-11,3.4227355296433979e+00,2.1567547863561695e-11
1.2250000000000000e-11,3.4795639829616372e+00,2.2430335302637323e-11
1.2500000000000000e-11,3.5355339059326862e+00,2.3307222538749115e-11
1.2750000000000000e-11,3.5906314888159914e+00,2.4197993213092698e-11
1.3000000000000000e-11,3.6448431371069958e+00,2.5102427541333073e-11
1.3249999999999999e-11,3.6981554748930963e+00,2.6020302367833083e-11
1.3500000000000000e-11,3.7505553481522398e+00,2.6951391220713749e-11
1.3749999999999999e-11,3.8020298280002232e+00,2.7895464367732806e-11
1.4000000000000000e-11,3.8525662138788919e+00,2.8852288872967698e-11
1.4249999999999999e-11,3.9021520366916995e+00,2.9821628654289024e-11
1.4500000000000000e-11,3.9507750618784030e+00,3.0803244541610282e-11
1.4750000000000001e-11,3.9984232924355130e+00,3.1796894335899525e-11
1.5000000000000000e-11,4.0450849718746920e+00,3.2802332868938300e-11
1.5249999999999999e-11,4.0907485871251694e+00,3.3819312063813284e-11
1.5499999999999998e-11,4.1354028713727597e+00,3.4847580996125525e-11
1.5750000000000001e-11,4.1790368068413937e+00,3.5886885955902294e-11
1.6000000000000000e-11,4.2216396275100383e+00,3.6936970510196219e-11
1.6249999999999999e-11,4.2632008217705089e+00,3.7997575566356291e-11
1.6500000000000001e-11,4.3037101350196867e+00,3.9068439435955064e-11
1.6750000000000000e-11,4.3431575721909752e+00,4.0149297899356399e-11
1.6999999999999999e-11,4.3815334002193094e+00,4.1239884270907682e-11
1.7249999999999999e-11,4.4188281504434759e+00,4.2339929464740529e-11
1.7500000000000001e-11,4.4550326209418678e+00,4.3449162061163696e-11
1.7750000000000000e-11,4.4901378788030755e+00,4.4567308373631813e-11
1.7999999999999999e-11,4.5241352623300877e+00,4.5694092516273460e-11
1.8249999999999998e-11,4.5570163831772632e+00,4.6829236471961876e-11
1.8500000000000001e-11,4.5887731284198523e+00,4.7972460160911517e-11
1.8750000000000000e-11,4.6193976625564623e+00,4.9123481509783560e-11
1.8999999999999999e-11,4.6488824294412456e+00,5.0282016521283271e-11
1.9249999999999998e-11,4.6772201541493832e+00,5.1447779344232102e-11
1.9500000000000001e-11,4.7044038447710967e+00,5.2620482344097159e-11
1.9750000000000000e-11,4.7304267941377613e+00,5.3799836173960768e-11
1.9999999999999999e-11,4.7552825814757522e+00,5.4985549845912458e-11
2.0250000000000001e-11,4.7789650739916727e+00,5.6177330802845886e-11
2.0500000000000000e-11,4.8014684283847107e+00,5.7374884990642933e-11
2.0749999999999999e-11,4.8227870922889942e+00,5.8577916930727138e-11
2.0999999999999999e-11,4.8429158056431696e+00,5.9786129792968670e-11
2.1250000000000001e-11,4.8618496019884070e+00,6.0999225468922609e-11
2.1500000000000000e-11,4.8795838096936830e+00,6.2216904645382873e-11
2.1749999999999999e-11,4.8961140531089011e+00,6.3438866878233199e-11
2.1999999999999998e-11,4.9114362536433340e+00,6.4664810666577226e-11
2.2250000000000001e-11,4.9255466307739528e+00,6.5894433527129387e-11
2.2500000000000000e-11,4.9384417029756413e+00,6.7127432068848087e-11
2.2749999999999999e-11,4.9501182885828143e+00,6.8363502067792895e-11
2.2999999999999998e-11,4.9605735065723451e+00,6.9602338542187284e-11
2.3250000000000000e-11,4.9698047772759093e+00,7.0843635827668322e-11
2.3500000000000000e-11,4.9778098230154217e+00,7.2087087652704736e-11
2.3749999999999999e-11,4.9845866686656457e+00,7.3332387214164862e-11
2.4000000000000001e-11,4.9901336421413554e+00,7.4579227253015746e-11
2.4250000000000000e-11,4.9944493748098449e+00,7.5827300130134642e-11
2.4499999999999999e-11,4.9975328018286564e+00,7.7076297902214458e-11
2.4749999999999999e-11,4.9993831624082983e+00,7.8325912397744080e-11
2.5000000000000001e-11,5.0000000000000124e+00,7.9575835293045112e-11
2.5250000000000000e-11,4.9993831624082983e+00,8.0825758188346157e-11
2.5499999999999999e-11,4.9975328018286564e+00,8.2075372683875765e-11
2.5749999999999998e-11,4.9944493748098449e+00,8.3324370455955581e-11
2.6000000000000001e-11,4.9901336421413554e+00,8.4572443333074478e-11
2.6250000000000000e-11,4.9845866686656457e+00,8.5819283371925361e-11
2.6499999999999999e-11,4.9778098230153454e+00,8.7064582933385488e-11
2.6749999999999998e-11,4.9698047772759093e+00,8.8308034758421889e-11
2.7000000000000000e-11,4.9605735065723451e+00,8.9549332043902927e-11
2.7250000000000000e-11,4.9501182885828143e+00,9.0788168518297316e-11
2.7499999999999999e-11,4.9384417029756413e+00,9.2024238517242124e-11
2.7749999999999998e-11,4.9255466307739528e+00,9.3257237058960824e-11
2.8000000000000000e-11,4.9114362536433340e+00,9.4486859919512985e-11
2.8249999999999999e-11,4.8961140531089011e+00,9.5712803707857012e-11
2.8499999999999999e-11,4.8795838096936830e+00,9.6934765940707338e-11
2.8750000000000001e-11,4.8618496019884070e+00,9.8152445117167602e-11
2.9000000000000000e-11,4.8429158056430932e+00,9.9365540793121527e-11
2.9250000000000002e-11,4.8227870922890705e+00,1.0057375365536306e-10
2.9500000000000002e-11,4.8014684283847107e+00,1.0177678559544728e-10
2.9750000000000001e-11,4.7789650739916727e+00,1.0297433978324432e-10
3.0000000000000000e-11,4.7552825814756758e+00,1.0416612074017774e-10
3.0249999999999999e-11,4.7304267941377613e+00,1.0535183441212942e-10
3.0499999999999998e-11,4.7044038447710186e+00,1.0653118824199303e-10
3.0749999999999997e-11,4.6772201541494614e+00,1.0770389124185808e-10
3.0999999999999996e-11,4.6488824294411675e+00,1.0886965406480691e-10
3.1250000000000002e-11,4.6193976625564641e+00,1.1002818907630661e-10
3.1500000000000001e-11,4.5887731284199269e+00,1.1117921042517866e-10
3.1750000000000000e-11,4.5570163831772668e+00,1.1232243411412831e-10
3.1999999999999999e-11,4.5241352623300077e+00,1.1345757806981672e-10
3.2249999999999998e-11,4.4901378788032318e+00,1.1458436221245837e-10
3.2499999999999998e-11,4.4550326209417115e+00,1.1570250852492649e-10
3.2749999999999997e-11,4.4188281504435558e+00,1.1681174112134964e-10
3.3000000000000002e-11,4.3815334002191904e+00,1.1791178631518248e-10
3.3250000000000002e-11,4.3431575721910569e+00,1.1900237268673377e-10
3.3500000000000001e-11,4.3037101350195659e+00,1.2008323115013511e-10
3.3750000000000000e-11,4.2632008217705533e+00,1.2115409501973388e-10
3.3999999999999999e-11,4.2216396275100312e+00,1.2221470007589393e-10
3.4249999999999998e-11,4.1790368068414008e+00,1.2326478463018788e-10
3.4499999999999997e-11,4.1354028713728308e+00,1.2430408958996465e-10
3.4749999999999996e-11,4.0907485871251374e+00,1.2533235852227690e-10
3.5000000000000002e-11,4.0450849718747239e+00,1.2634933771715187e-10
3.5250000000000001e-11,3.9984232924354810e+00,1.2735477625019065e-10
3.5500000000000000e-11,3.9507750618783586e+00,1.2834842604447989e-10
3.5749999999999999e-11,3.9021520366917439e+00,1.2933004193180115e-10
3.5999999999999998e-11,3.8525662138788856e+00,1.3029938171312246e-10
3.6249999999999998e-11,3.8020298280002685e+00,1.3125620621835737e-10
3.6499999999999997e-11,3.7505553481521172e+00,1.3220027936537641e-10
3.6750000000000002e-11,3.6981554748932188e+00,1.3313136821825708e-10
3.7000000000000001e-11,3.6448431371069496e+00,1.3404924304475709e-10
3.7250000000000001e-11,3.5906314888160757e+00,1.3495367737299748e-10
3.7500000000000000e-11,3.5355339059326019e+00,1.3584444804734107e-10
3.7749999999999999e-11,3.4795639829617606e+00,1.3672133528345287e-10
3.7999999999999998e-11,3.4227355296432167e+00,1.3758412272252848e-10
3.8249999999999997e-11,3.3650625675491543e+00,1.3843259748467754e-10
3.8499999999999996e-11,3.3065593266180517e+00,1.3926655022144844e-10
3.8750000000000002e-11,3.2472402416511601e+00,1.4008577516748208e-10
3.9000000000000001e-11,3.1871199487431463e+00,1.4089007019128137e-10
3.9250000000000000e-11,3.1262132816788002e+00,1.4167923684508410e-10
3.9499999999999999e-11,3.0645352682646747e+00,1.4245308041382704e-10
3.9749999999999998e-11,3.0021011266295563e+00,1.4321140996318882e-10
3.9999999999999998e-11,2.9389262614621581e+00,1.4395403838670029e-10
4.0249999999999997e-11,2.8750262602165746e+00,1.4468078245191013e-10
4.0500000000000002e-11,2.8104168892604759e+00,1.4539146284559477e-10
4.0750000000000001e-11,2.7451140899909108e+00,1.4608590421800117e-10
4.1000000000000001e-11,2.6791339748946870e+00,1.4676393522611188e-10
4.1250000000000000e-11,2.6124928235800384e+00,1.4742538857592122e-10
4.1499999999999999e-11,2.5452070787514929e+00,1.4807010106371267e-10
4.1749999999999998e-11,2.4772933421624579e+00,1.4869791361632692e-10
4.1999999999999997e-11,2.4087683705081009e+00,1.4930867133041072e-10
4.2249999999999996e-11,2.3396490713033034e+00,1.4990222351063717e-10
4.2500000000000002e-11,2.2699524986972248e+00,1.5047842370688723e-10
4.2750000000000001e-11,2.1996958492801495e+00,1.5103712975038438e-10
4.3000000000000000e-11,2.1288964578248004e+00,1.5157820378877251e-10
4.3249999999999999e-11,2.0575717930260540e+00,1.5210151232012887e-10
4.3499999999999998e-11,1.9857394531734514e+00,1.5260692622590380e-10
4.3749999999999998e-11,1.9134171618259259e+00,1.5309432080277873e-10
4.3999999999999997e-11,1.8406227634228722e+00,1.5356357579343484e-10
4.4250000000000002e-11,1.7673742188967956e+00,1.5401457541622478e-10
4.4500000000000001e-11,1.6936896012259957e+00,1.5444720839374013e-10
4.4750000000000001e-11,1.6195870909912826e+00,1.5486136798026731e-10
4.5000000000000000e-11,1.5450849718742505e+00,1.5525695198812550e-10
4.5249999999999999e-11,1.4702016261620470e+00,1.5563386281288003e-10
4.5499999999999998e-11,1.3949555301956797e+00,1.5599200745742475e-10
4.5749999999999997e-11,1.3193652498272845e+00,1.5633129755492762e-10
4.5999999999999996e-11,1.2434494358238322e+00,1.5665164939063401e-10
4.6250000000000002e-11,1.1672268192799535e+00,1.5695298392252197e-10
4.6500000000000001e-11,1.0907162069822598e+00,1.5723522680080476e-10
4.6750000000000000e-11,1.0139364767830936e+00,1.5749830838627541e-10
4.6999999999999999e-11,9.3690657292805990e-01,1.5774216376748933e-10
4.7249999999999998e-11,8.5964550139760365e-01,1.5796673277678003e-10
4.7499999999999998e-11,7.8217232520066449e-01,1.5817196000510482e-10
4.7749999999999997e-11,7.0450615968836638e-01,1.5835779481571593e-10
4.8000000000000002e-11,6.2666616782100659e-01,1.5852419135665459e-10
4.8250000000000001e-11,5.4867155545569068e-01,1.5867110857206420e-10
4.8500000000000001e-11,4.7054156659217394e-01,1.5879851021232017e-10
4.8750000000000000e-11,3.9229547863965353e-01,1.5890636484297414e-10
4.8999999999999999e-11,3.1395259764621264e-01,1.5899464585250989e-10
4.9249999999999998e-11,2.3553225354860130e-01,1.5906333145890924e-10
4.9499999999999997e-11,1.5705379539018616e-01,1.5911240471502658e-10
4.9749999999999996e-11,7.8536586559544930e-02,1.5914185351277030e-10
5.0000000000000002e-11,-4.7346848663920582e-13,1.5915167058609020e-10
5.0250000000000001e-11,-7.8536586558597993e-02,1.5914185351277030e-10
5.0500000000000000e-11,-1.5705379539113309e-01,1.5911240471502658e-10
5.0749999999999999e-11,-2.3553225354765436e-01,1.5906333145890924e-10
5.0999999999999998e-11,-3.1395259764715955e-01,1.5899464585250989e-10
5.1249999999999998e-11,-3.9229547863855341e-01,1.5890636484297417e-10
5.1499999999999997e-11,-4.7054156659327406e-01,1.5879851021232019e-10
5.1749999999999996e-11,-5.4867155545459056e-01,1.5867110857206420e-10
5.2000000000000001e-11,-6.2666616782210671e-01,1.5852419135665462e-10
5.2250000000000001e-11,-7.0450615968726626e-01,1.5835779481571596e-10
5.2500000000000000e-11,-7.8217232520176461e-01,1.5817196000510482e-10
5.2749999999999999e-11,-8.5964550139650353e-01,1.5796673277678003e-10
5.2999999999999998e-11,-9.3690657292916002e-01,1.5774216376748933e-10
5.3249999999999997e-11,-1.0139364767819936e+00,1.5749830838627544e-10
5.3499999999999996e-11,-1.0907162069832061e+00,1.5723522680080478e-10
5.3750000000000002e-11,-1.1672268192790072e+00,1.5695298392252200e-10
5.4000000000000001e-11,-1.2434494358247785e+00,1.5665164939063404e-10
5.4250000000000000e-11,-1.3193652498263382e+00,1.5633129755492764e-10
5.4499999999999999e-11,-1.3949555301966261e+00,1.5599200745742478e-10
5.4749999999999998e-11,-1.4702016261611006e+00,1.5563386281288006e-10
5.4999999999999997e-11,-1.5450849718751969e+00,1.5525695198812553e-10
5.5249999999999997e-11,-1.6195870909903363e+00,1.5486136798026733e-10
5.5499999999999996e-11,-1.6936896012267888e+00,1.5444720839374021e-10
5.5750000000000001e-11,-1.7673742188960024e+00,1.5401457541622485e-10
5.6000000000000000e-11,-1.8406227634236654e+00,1.5356357579343489e-10
5.6250000000000000e-11,-1.9134171618251328e+00,1.5309432080277878e-10
5.6499999999999999e-11,-1.9857394531742445e+00,1.5260692622590388e-10
5.6749999999999998e-11,-2.0575717930252608e+00,1.5210151232012892e-10
5.6999999999999997e-11,-2.1288964578255936e+00,1.5157820378877256e-10
5.7249999999999996e-11,-2.1996958492793564e+00,1.5103712975038446e-10
5.7500000000000002e-11,-2.2699524986980180e+00,1.5047842370688728e-10
5.7750000000000001e-11,-2.3396490713025102e+00,1.4990222351063722e-10
5.8000000000000000e-11,-2.4087683705088940e+00,1.4930867133041080e-10
5.8249999999999993e-11,-2.4772933421616647e+00,1.4869791361632697e-10
5.8500000000000005e-11,-2.5452070787522860e+00,1.4807010106371272e-10
5.8750000000000004e-11,-2.6124928235792453e+00,1.4742538857592127e-10
5.9000000000000003e-11,-2.6791339748954801e+00,1.4676393522611194e-10
5.9250000000000002e-11,-2.7451140899901176e+00,1.4608590421800125e-10
5.9500000000000001e-11,-2.8104168892612691e+00,1.4539146284559482e-10
5.9750000000000000e-11,-2.8750262602157814e+00,1.4468078245191018e-10
6.0000000000000000e-11,-2.9389262614629512e+00,1.4395403838670034e-10
6.0249999999999999e-11,-3.0021011266287632e+00,1.4321140996318887e-10
6.0499999999999998e-11,-3.0645352682654678e+00,1.4245308041382712e-10
6.0749999999999997e-11,-3.1262132816780070e+00,1.4167923684508418e-10
6.0999999999999996e-11,-3.1871199487439394e+00,1.4089007019128143e-10
6.1249999999999995e-11,-3.2472402416503670e+00,1.4008577516748213e-10
6.1499999999999994e-11,-3.3065593266188449e+00,1.3926655022144849e-10
6.1749999999999994e-11,-3.3650625675482075e+00,1.3843259748467761e-10
6.1999999999999993e-11,-3.4227355296441635e+00,1.3758412272252856e-10
6.2250000000000005e-11,-3.4795639829608138e+00,1.3672133528345295e-10
6.2500000000000004e-11,-3.5355339059335487e+00,1.3584444804734115e-10
6.2750000000000003e-11,-3.5906314888151289e+00,1.3495367737299756e-10
6.3000000000000002e-11,-3.6448431371078964e+00,1.3404924304475717e-10
6.3250000000000001e-11,-3.6981554748922720e+00,1.3313136821825716e-10
6.3500000000000000e-11,-3.7505553481530640e+00,1.3220027936537649e-10
6.3750000000000000e-11,-3.8020298279993217e+00,1.3125620621835745e-10
6.3999999999999999e-11,-3.8525662138798324e+00,1.3029938171312254e-10
6.4249999999999998e-11,-3.9021520366907971e+00,1.2933004193180123e-10
6.4499999999999997e-11,-3.9507750618793054e+00,1.2834842604447997e-10
6.4749999999999996e-11,-3.9984232924345342e+00,1.2735477625019072e-10
6.4999999999999995e-11,-4.0450849718756707e+00,1.2634933771715195e-10
6.5249999999999994e-11,-4.0907485871241906e+00,1.2533235852227698e-10
6.5499999999999994e-11,-4.1354028713737776e+00,1.2430408958996473e-10
6.5749999999999993e-11,-4.1790368068404540e+00,1.2326478463018796e-10
6.6000000000000005e-11,-4.2216396275109780e+00,1.2221470007589401e-10
6.6250000000000004e-11,-4.2632008217696065e+00,1.2115409501973395e-10
6.6500000000000003e-11,-4.3037101350205127e+00,1.2008323115013517e-10
6.6750000000000002e-11,-4.3431575721901101e+00,1.1900237268673385e-10
6.7000000000000001e-11,-4.3815334002201372e+00,1.1791178631518256e-10
6.7250000000000000e-11,-4.4188281504426090e+00,1.1681174112134972e-10
6.7500000000000000e-11,-4.4550326209426583e+00,1.1570250852492657e-10
6.7749999999999999e-11,-4.4901378788022850e+00,1.1458436221245845e-10
6.7999999999999998e-11,-4.5241352623309545e+00,1.1345757806981680e-10
6.8249999999999997e-11,-4.5570163831763200e+00,1.1232243411412839e-10
6.8499999999999996e-11,-4.5887731284208737e+00,1.1117921042517874e-10
6.8749999999999995e-11,-4.6193976625555173e+00,1.1002818907630669e-10
6.8999999999999994e-11,-4.6488824294421143e+00,1.0886965406480698e-10
6.9249999999999994e-11,-4.6772201541485146e+00,1.0770389124185815e-10
6.9499999999999993e-11,-4.7044038447719654e+00,1.0653118824199309e-10
6.9750000000000005e-11,-4.7304267941368146e+00,1.0535183441212949e-10
7.0000000000000004e-11,-4.7552825814766226e+00,1.0416612074017782e-10
7.0250000000000003e-11,-4.7789650739907259e+00,1.0297433978324440e-10
7.0500000000000002e-11,-4.8014684283856575e+00,1.0177678559544736e-10
7.0750000000000001e-11,-4.8227870922881237e+00,1.0057375365536312e-10
7.1000000000000000e-11,-4.8429158056440400e+00,9.9365540793121605e-11
7.1250000000000000e-11,-4.8618496019874602e+00,9.8152445117167679e-11
7.1499999999999999e-11,-4.8795838096946298e+00,9.6934765940707416e-11
7.1749999999999998e-11,-4.8961140531079543e+00,9.5712803707857089e-11
