time,"V(R1)","V(R2)"
0.0000000000000000e+00,0.0000000000000000e+00,0.0000000000000000e+00
2.4999999999999999e-13,2.0833333333333337e-01,4.1666666666666657e-02
4.9999999999999999e-13,4.1666666666666674e-01,8.3333333333333315e-02
7.5000000000000004e-13,6.2500000000000022e-01,1.2500000000000008e-01
9.9999999999999998e-13,8.3333333333333326e-01,1.6666666666666655e-01
1.2499999999999999e-12,1.0416666666666665e+00,2.0833333333333334e-01
1.5000000000000001e-12,1.2500000000000013e+00,2.4999999999999997e-01
1.7500000000000000e-12,1.4583333333333308e+00,2.9166666666666641e-01
2.0000000000000000e-12,1.6666666666666714e+00,3.3333333333333415e-01
2.2499999999999999e-12,1.8749999999999947e+00,3.7499999999999845e-01
2.4999999999999998e-12,2.0833333333333388e+00,4.1666666666666852e-01
2.7499999999999998e-12,2.2916666666666594e+00,4.5833333333333115e-01
3.0000000000000001e-12,2.5000000000000084e+00,5.0000000000000233e-01
3.2500000000000001e-12,2.7083333333333273e+00,5.4166666666666508e-01
3.5000000000000000e-12,2.9166666666666710e+00,5.8333333333333315e-01
3.7500000000000000e-12,3.1249999999999996e+00,6.2499999999999944e-01
3.9999999999999999e-12,3.3333333333333290e+00,6.6666666666666530e-01
4.2499999999999999e-12,3.5416666666666710e+00,7.0833333333333626e-01
4.4999999999999998e-12,3.7500000000000013e+00,7.4999999999999722e-01
4.7499999999999998e-12,3.9583333333333335e+00,7.9166666666666841e-01
4.9999999999999997e-12,4.1666666666666732e+00,8.3333333333333159e-01
5.2499999999999996e-12,4.1666666666666554e+00,8.3333333333333337e-01
5.4999999999999996e-12,4.1666666666666732e+00,8.3333333333333159e-01
5.7499999999999995e-12,4.1666666666666554e+00,8.3333333333333803e-01
6.0000000000000003e-12,4.1666666666666732e+00,8.3333333333333159e-01
6.2500000000000002e-12,4.1666666666666554e+00,8.3333333333333803e-01
6.5000000000000002e-12,4.1666666666666732e+00,8.3333333333333159e-01
6.7500000000000001e-12,4.1666666666666554e+00,8.3333333333333803e-01
7.0000000000000001e-12,4.1666666666666927e+00,8.3333333333333648e-01
7.2500000000000000e-12,4.1666666666666554e+00,8.3333333333333315e-01
7.5000000000000000e-12,4.1666666666666927e+00,8.3333333333333648e-01
7.7499999999999991e-12,4.1666666666666750e+00,8.3333333333333315e-01
7.9999999999999998e-12,4.1666666666666536e+00,8.3333333333333648e-01
8.2500000000000006e-12,4.1666666666666750e+00,8.3333333333333315e-01
8.4999999999999997e-12,4.1666666666666927e+00,8.3333333333334136e-01
8.7500000000000005e-12,4.1666666666666359e+00,8.3333333333332826e-01
8.9999999999999996e-12,4.1666666666667318e+00,8.3333333333334625e-01
9.2500000000000004e-12,4.1666666666665968e+00,8.3333333333331383e-01
9.4999999999999995e-12,4.1666666666667709e+00,8.3333333333336534e-01
9.7500000000000003e-12,4.1666666666665577e+00,8.3333333333330428e-01
9.9999999999999994e-12,4.1666666666668100e+00,8.3333333333337489e-01
1.0250000000000000e-11,4.1666666666665186e+00,8.3333333333329473e-01
1.0499999999999999e-11,4.1666666666668100e+00,8.3333333333337489e-01
1.0750000000000000e-11,4.1666666666665577e+00,8.3333333333329473e-01
1.0999999999999999e-11,4.1666666666668100e+00,8.3333333333337489e-01
1.1250000000000000e-11,4.1666666666664813e+00,8.3333333333328519e-01
1.1499999999999999e-11,4.1666666666668473e+00,8.3333333333338444e-01
1.1750000000000000e-11,4.1666666666664440e+00,8.3333333333327564e-01
1.2000000000000001e-11,4.1666666666668846e+00,8.3333333333339399e-01
1.2250000000000000e-11,4.1666666666664440e+00,8.3333333333327564e-01
1.2500000000000000e-11,4.1666666666668473e+00,8.3333333333338444e-01
1.2750000000000000e-11,4.1666666666664813e+00,8.3333333333328519e-01
1.3000000000000000e-11,4.1666666666668100e+00,8.3333333333337489e-01
1.3249999999999999e-11,4.1666666666665186e+00,8.3333333333329473e-01
1.3500000000000000e-11,4.1666666666668100e+00,8.3333333333337489e-01
1.3749999999999999e-11,4.1666666666665186e+00,8.3333333333328519e-01
1.4000000000000000e-11,4.1666666666668100e+00,8.3333333333336534e-01
1.4249999999999999e-11,4.1666666666665186e+00,8.3333333333328519e-01
1.4500000000000000e-11,4.1666666666668100e+00,8.3333333333336534e-01
1.4750000000000001e-11,4.1666666666665186e+00,8.3333333333328519e-01
1.5000000000000000e-11,4.1666666666668100e+00,8.3333333333336534e-01
1.5249999999999999e-11,4.1666666666665186e+00,8.3333333333328519e-01
1.5499999999999998e-11,4.1666666666667336e+00,8.3333333333337489e-01
1.5750000000000001e-11,4.1666666666665950e+00,8.3333333333329473e-01
1.6000000000000000e-11,4.1666666666667336e+00,8.3333333333337489e-01
1.6249999999999999e-11,4.1666666666665950e+00,8.3333333333329473e-01
1.6500000000000001e-11,4.1666666666667336e+00,8.3333333333337489e-01
1.6750000000000000e-11,4.1666666666665950e+00,8.3333333333327564e-01
1.6999999999999999e-11,4.1666666666667336e+00,8.3333333333337489e-01
1.7249999999999999e-11,4.1666666666665950e+00,8.3333333333327564e-01
1.7500000000000001e-11,4.1666666666667336e+00,8.3333333333337489e-01
1.7750000000000000e-11,4.1666666666665950e+00,8.3333333333327564e-01
1.7999999999999999e-11,4.1666666666667336e+00,8.3333333333337489e-01
1.8249999999999998e-11,4.1666666666665950e+00,8.3333333333327564e-01
1.8500000000000001e-11,4.1666666666667336e+00,8.3333333333337489e-01
1.8750000000000000e-11,4.1666666666665950e+00,8.3333333333327564e-01
1.8999999999999999e-11,4.1666666666667336e+00,8.3333333333337489e-01
1.9249999999999998e-11,4.1666666666665950e+00,8.3333333333327564e-01
1.9500000000000001e-11,4.1666666666667336e+00,8.3333333333337489e-01
1.9750000000000000e-11,4.1666666666665950e+00,8.3333333333327564e-01
1.9999999999999999e-11,4.1666666666667336e+00,8.3333333333339399e-01
2.0250000000000001e-11,4.1666666666666714e+00,8.3333333333329473e-01
2.0500000000000000e-11,4.1666666666667336e+00,8.3333333333337489e-01
2.0749999999999999e-11,4.1666666666665950e+00,8.3333333333329473e-01
2.0999999999999999e-11,4.1666666666668100e+00,8.3333333333339399e-01
2.1250000000000001e-11,4.1666666666665950e+00,8.3333333333327564e-01
2.1500000000000000e-11,4.1666666666667336e+00,8.3333333333339399e-01
2.1749999999999999e-11,4.1666666666666714e+00,8.3333333333329473e-01
2.1999999999999998e-11,4.1666666666667336e+00,8.3333333333337489e-01
2.2250000000000001e-11,4.1666666666665950e+00,8.3333333333329473e-01
2.2500000000000000e-11,4.1666666666668100e+00,8.3333333333339399e-01
2.2749999999999999e-11,4.1666666666665950e+00,8.3333333333327564e-01
2.2999999999999998e-11,4.1666666666667336e+00,8.3333333333339399e-01
2.3250000000000000e-11,4.1666666666665950e+00,8.3333333333329473e-01
2.3500000000000000e-11,4.1666666666668881e+00,8.3333333333341331e-01
2.3749999999999999e-11,4.1666666666664405e+00,8.3333333333323723e-01
2.4000000000000001e-11,4.1666666666668881e+00,8.3333333333343240e-01
2.4250000000000000e-11,4.1666666666665950e+00,8.3333333333325632e-01
2.4499999999999999e-11,4.1666666666667336e+00,8.3333333333339421e-01
2.4749999999999999e-11,4.1666666666665950e+00,8.3333333333329451e-01
2.5000000000000001e-11,4.1666666666668881e+00,8.3333333333341353e-01
2.5250000000000000e-11,4.1666666666664405e+00,8.3333333333323700e-01
2.5499999999999999e-11,4.1666666666668881e+00,8.3333333333343262e-01
2.5749999999999998e-11,4.1666666666665950e+00,8.3333333333325610e-01
2.6000000000000001e-11,4.1666666666667336e+00,8.3333333333339443e-01
2.6250000000000000e-11,4.1666666666665950e+00,8.3333333333329429e-01
2.6499999999999999e-11,4.1666666666668881e+00,8.3333333333341375e-01
2.6749999999999998e-11,4.1666666666664405e+00,8.3333333333323678e-01
2.7000000000000000e-11,4.1666666666668881e+00,8.3333333333343285e-01
2.7250000000000000e-11,4.1666666666665950e+00,8.3333333333325588e-01
2.7499999999999999e-11,4.1666666666667336e+00,8.3333333333339465e-01
2.7749999999999998e-11,4.1666666666665950e+00,8.3333333333329407e-01
2.8000000000000000e-11,4.1666666666668881e+00,8.3333333333341397e-01
2.8249999999999999e-11,4.1666666666664405e+00,8.3333333333323656e-01
2.8499999999999999e-11,4.1666666666668881e+00,8.3333333333341397e-01
2.8750000000000001e-11,4.1666666666665950e+00,8.3333333333331316e-01
2.9000000000000000e-11,4.1666666666667336e+00,8.3333333333333737e-01
2.9250000000000002e-11,4.1666666666665950e+00,8.3333333333331316e-01
2.9500000000000002e-11,4.1666666666668881e+00,8.3333333333337556e-01
2.9750000000000001e-11,4.1666666666664405e+00,8.3333333333327497e-01
3.0000000000000000e-11,4.1666666666668881e+00,8.3333333333341375e-01
3.0249999999999999e-11,4.1666666666665950e+00,8.3333333333327497e-01
3.0499999999999998e-11,4.1666666666667336e+00,8.3333333333337556e-01
3.0749999999999997e-11,4.1666666666665950e+00,8.3333333333331316e-01
3.0999999999999996e-11,4.1666666666668881e+00,8.3333333333337556e-01
3.1250000000000002e-11,4.1666666666664405e+00,8.3333333333327497e-01
3.1500000000000001e-11,4.1666666666668881e+00,8.3333333333341375e-01
3.1750000000000000e-11,4.1666666666665950e+00,8.3333333333327497e-01
3.1999999999999999e-11,4.1666666666667336e+00,8.3333333333337556e-01
3.2249999999999998e-11,4.1666666666665950e+00,8.3333333333331316e-01
3.2499999999999998e-11,4.1666666666668881e+00,8.3333333333337556e-01
3.2749999999999997e-11,4.1666666666664405e+00,8.3333333333327497e-01
3.3000000000000002e-11,4.1666666666668881e+00,8.3333333333341375e-01
3.3250000000000002e-11,4.1666666666665950e+00,8.3333333333327497e-01
3.3500000000000001e-11,4.1666666666667336e+00,8.3333333333337556e-01
3.3750000000000000e-11,4.1666666666665950e+00,8.3333333333331316e-01
3.3999999999999999e-11,4.1666666666668881e+00,8.3333333333337556e-01
3.4249999999999998e-11,4.1666666666664405e+00,8.3333333333327497e-01
3.4499999999999997e-11,4.1666666666668881e+00,8.3333333333341375e-01
3.4749999999999996e-11,4.1666666666665950e+00,8.3333333333327497e-01
3.5000000000000002e-11,4.1666666666667336e+00,8.3333333333337556e-01
3.5250000000000001e-11,4.1666666666665950e+00,8.3333333333331316e-01
3.5500000000000000e-11,4.1666666666668881e+00,8.3333333333337556e-01
3.5749999999999999e-11,4.1666666666664405e+00,8.3333333333327497e-01
3.5999999999999998e-11,4.1666666666668881e+00,8.3333333333341375e-01
3.6249999999999998e-11,4.1666666666665950e+00,8.3333333333327497e-01
3.6499999999999997e-11,4.1666666666667336e+00,8.3333333333337556e-01
3.6750000000000002e-11,4.1666666666665950e+00,8.3333333333331316e-01
3.7000000000000001e-11,4.1666666666668881e+00,8.3333333333337556e-01
3.7250000000000001e-11,4.1666666666664405e+00,8.3333333333327497e-01
3.7500000000000000e-11,4.1666666666668881e+00,8.3333333333341375e-01
3.7749999999999999e-11,4.1666666666665950e+00,8.3333333333327497e-01
3.7999999999999998e-11,4.1666666666667336e+00,8.3333333333337556e-01
3.8249999999999997e-11,4.1666666666665950e+00,8.3333333333331316e-01
3.8499999999999996e-11,4.1666666666668881e+00,8.3333333333337556e-01
3.8750000000000002e-11,4.1666666666664405e+00,8.3333333333327497e-01
3.9000000000000001e-11,4.1666666666668881e+00,8.3333333333341375e-01
3.9250000000000000e-11,4.1666666666665950e+00,8.3333333333327497e-01
3.9499999999999999e-11,4.1666666666667336e+00,8.3333333333337556e-01
3.9749999999999998e-11,4.1666666666665950e+00,8.3333333333331316e-01
3.9999999999999998e-11,4.1666666666668881e+00,8.3333333333337556e-01
4.0249999999999997e-11,4.1666666666664405e+00,8.3333333333327497e-01
4.0500000000000002e-11,4.1666666666668881e+00,8.3333333333341375e-01
4.0750000000000001e-11,4.1666666666665950e+00,8.3333333333327497e-01
4.1000000000000001e-11,4.1666666666667336e+00,8.3333333333337556e-01
4.1250000000000000e-11,4.1666666666665950e+00,8.3333333333331316e-01
4.1499999999999999e-11,4.1666666666668881e+00,8.3333333333337556e-01
4.1749999999999998e-11,4.1666666666664405e+00,8.3333333333327497e-01
4.1999999999999997e-11,4.1666666666668881e+00,8.3333333333341375e-01
4.2249999999999996e-11,4.1666666666665950e+00,8.3333333333327497e-01
4.2500000000000002e-11,4.1666666666667336e+00,8.3333333333337556e-01
4.2750000000000001e-11,4.1666666666665950e+00,8.3333333333331316e-01
4.3000000000000000e-11,4.1666666666668881e+00,8.3333333333337556e-01
4.3249999999999999e-11,4.1666666666664405e+00,8.3333333333327497e-01
4.3499999999999998e-11,4.1666666666668881e+00,8.3333333333341375e-01
4.3749999999999998e-11,4.1666666666665950e+00,8.3333333333327497e-01
4.3999999999999997e-11,4.1666666666668881e+00,8.3333333333337556e-01
4.4250000000000002e-11,4.1666666666662877e+00,8.3333333333327497e-01
4.4500000000000001e-11,4.1666666666671954e+00,8.3333333333345216e-01
4.4750000000000001e-11,4.1666666666659804e+00,8.3333333333323656e-01
4.5000000000000000e-11,4.1666666666675027e+00,8.3333333333345216e-01
4.5249999999999999e-11,4.1666666666659804e+00,8.3333333333323656e-01
4.5499999999999998e-11,4.1666666666675027e+00,8.3333333333341397e-01
4.5749999999999997e-11,4.1666666666656731e+00,8.3333333333319815e-01
4.5999999999999996e-11,4.1666666666678100e+00,8.3333333333349058e-01
4.6250000000000002e-11,4.1666666666656731e+00,8.3333333333315995e-01
4.6500000000000001e-11,4.1666666666675027e+00,8.3333333333349058e-01
4.6750000000000000e-11,4.1666666666659804e+00,8.3333333333319815e-01
4.6999999999999999e-11,4.1666666666675027e+00,8.3333333333349058e-01
4.7249999999999998e-11,4.1666666666659804e+00,8.3333333333315995e-01
4.7499999999999998e-11,4.1666666666671954e+00,8.3333333333352877e-01
4.7749999999999997e-11,4.1666666666662877e+00,8.3333333333315995e-01
4.8000000000000002e-11,4.1666666666668881e+00,8.3333333333349058e-01
4.8250000000000001e-11,4.1666666666665950e+00,8.3333333333319815e-01
4.8500000000000001e-11,4.1666666666668881e+00,8.3333333333349058e-01
4.8750000000000000e-11,4.1666666666665950e+00,8.3333333333315995e-01
4.8999999999999999e-11,4.1666666666665808e+00,8.3333333333352877e-01
4.9249999999999998e-11,4.1666666666669023e+00,8.3333333333315995e-01
4.9499999999999997e-11,4.1666666666662735e+00,8.3333333333349058e-01
4.9749999999999996e-11,4.1666666666672096e+00,8.3333333333319815e-01
5.0000000000000002e-11,4.1666666666662735e+00,8.3333333333349058e-01
5.0250000000000001e-11,4.1666666666672096e+00,8.3333333333315995e-01
5.0500000000000000e-11,4.1666666666659662e+00,8.3333333333352877e-01
5.0749999999999999e-11,4.1666666666675169e+00,8.3333333333315995e-01
5.0999999999999998e-11,4.1666666666656589e+00,8.3333333333349058e-01
5.1249999999999998e-11,4.1666666666678243e+00,8.3333333333319815e-01
5.1499999999999997e-11,4.1666666666656589e+00,8.3333333333349058e-01
5.1749999999999996e-11,4.1666666666678243e+00,8.3333333333315995e-01
5.2000000000000001e-11,4.1666666666653516e+00,8.3333333333352877e-01
5.2250000000000001e-11,4.1666666666681316e+00,8.3333333333315995e-01
5.2500000000000000e-11,4.1666666666650443e+00,8.3333333333349058e-01
5.2749999999999999e-11,4.1666666666684389e+00,8.3333333333319815e-01
5.2999999999999998e-11,4.1666666666650443e+00,8.3333333333349058e-01
5.3249999999999997e-11,4.1666666666684389e+00,8.3333333333315995e-01
5.3499999999999996e-11,4.1666666666647370e+00,8.3333333333352877e-01
5.3750000000000002e-11,4.1666666666687462e+00,8.3333333333315995e-01
5.4000000000000001e-11,4.1666666666644296e+00,8.3333333333349058e-01
5.4250000000000000e-11,4.1666666666690535e+00,8.3333333333319815e-01
5.4499999999999999e-11,4.1666666666644296e+00,8.3333333333349058e-01
5.4749999999999998e-11,4.1666666666690535e+00,8.3333333333315995e-01
5.4999999999999997e-11,4.1666666666641223e+00,8.3333333333349058e-01
5.5249999999999997e-11,4.1666666666693608e+00,8.3333333333315995e-01
5.5499999999999996e-11,4.1666666666641223e+00,8.3333333333349058e-01
5.5750000000000001e-11,4.1666666666690535e+00,8.3333333333315995e-01
5.6000000000000000e-11,4.1666666666644296e+00,8.3333333333356718e-01
5.6250000000000000e-11,4.1666666666690535e+00,8.3333333333308335e-01
5.6499999999999999e-11,4.1666666666644296e+00,8.3333333333356718e-01
5.6749999999999998e-11,4.1666666666687462e+00,8.3333333333308335e-01
5.6999999999999997e-11,4.1666666666647370e+00,8.3333333333364379e-01
5.7249999999999996e-11,4.1666666666684389e+00,8.3333333333300674e-01
5.7500000000000002e-11,4.1666666666650443e+00,8.3333333333372039e-01
5.7750000000000001e-11,4.1666666666684389e+00,8.3333333333300674e-01
5.8000000000000000e-11,4.1666666666647370e+00,8.3333333333364379e-01
5.8249999999999993e-11,4.1666666666687462e+00,8.3333333333308335e-01
5.8500000000000005e-11,4.1666666666644296e+00,8.3333333333356718e-01
5.8750000000000004e-11,4.1666666666690535e+00,8.3333333333315995e-01
5.9000000000000003e-11,4.1666666666644296e+00,8.3333333333356718e-01
5.9250000000000002e-11,4.1666666666687462e+00,8.3333333333308335e-01
5.9500000000000001e-11,4.1666666666647370e+00,8.3333333333364379e-01
5.9750000000000000e-11,4.1666666666684389e+00,8.3333333333300674e-01
6.0000000000000000e-11,4.1666666666650443e+00,8.3333333333372039e-01
6.0249999999999999e-11,4.1666666666684389e+00,8.3333333333300674e-01
6.0499999999999998e-11,4.1666666666647370e+00,8.3333333333364379e-01
6.0749999999999997e-11,4.1666666666687462e+00,8.3333333333308335e-01
6.0999999999999996e-11,4.1666666666644296e+00,8.3333333333356718e-01
6.1249999999999995e-11,4.1666666666690535e+00,8.3333333333315995e-01
6.1499999999999994e-11,4.1666666666644296e+00,8.3333333333356718e-01
6.1749999999999994e-11,4.1666666666687462e+00,8.3333333333308335e-01
6.1999999999999993e-11,4.1666666666647370e+00,8.3333333333364379e-01
6.2250000000000005e-11,4.1666666666684389e+00,8.3333333333300674e-01
6.2500000000000004e-11,4.1666666666650443e+00,8.3333333333372039e-01
6.2750000000000003e-11,4.1666666666684389e+00,8.3333333333300674e-01
6.3000000000000002e-11,4.1666666666647370e+00,8.3333333333364379e-01
6.3250000000000001e-11,4.1666666666687462e+00,8.3333333333308335e-01
6.3500000000000000e-11,4.1666666666644296e+00,8.3333333333356718e-01
6.3750000000000000e-11,4.1666666666690535e+00,8.3333333333315995e-01
6.3999999999999999e-11,4.1666666666644296e+00,8.3333333333356718e-01
6.4249999999999998e-11,4.1666666666687462e+00,8.3333333333308335e-01
6.4499999999999997e-11,4.1666666666647370e+00,8.3333333333364379e-01
6.4749999999999996e-11,4.1666666666684389e+00,8.3333333333300674e-01
6.4999999999999995e-11,4.1666666666650443e+00,8.3333333333372039e-01
6.5249999999999994e-11,4.1666666666684389e+00,8.3333333333300674e-01
6.5499999999999994e-11,4.1666666666647370e+00,8.3333333333364379e-01
6.5749999999999993e-11,4.1666666666687462e+00,8.3333333333308335e-01
6.6000000000000005e-11,4.1666666666644296e+00,8.3333333333356718e-01
6.6250000000000004e-11,4.1666666666690535e+00,8.3333333333315995e-01
6.6500000000000003e-11,4.1666666666644296e+00,8.3333333333356718e-01
6.6750000000000002e-11,4.1666666666687462e+00,8.3333333333308335e-01
6.7000000000000001e-11,4.1666666666647370e+00,8.3333333333364379e-01
6.7250000000000000e-11,4.1666666666684389e+00,8.3333333333300674e-01
6.7500000000000000e-11,4.1666666666650443e+00,8.3333333333372039e-01
6.7749999999999999e-11,4.1666666666684389e+00,8.3333333333300674e-01
6.7999999999999998e-11,4.1666666666647370e+00,8.3333333333364379e-01
6.8249999999999997e-11,4.1666666666687462e+00,8.3333333333308335e-01
6.8499999999999996e-11,4.1666666666644296e+00,8.3333333333356718e-01
6.8749999999999995e-11,4.1666666666690535e+00,8.3333333333315995e-01
6.8999999999999994e-11,4.1666666666644296e+00,8.3333333333356718e-01
6.9249999999999994e-11,4.1666666666687462e+00,8.3333333333308335e-01
6.9499999999999993e-11,4.1666666666647370e+00,8.3333333333364379e-01
6.9750000000000005e-11,4.1666666666684389e+00,8.3333333333300674e-01
7.0000000000000004e-11,4.1666666666650443e+00,8.3333333333372039e-01
7.0250000000000003e-11,4.1666666666684389e+00,8.3333333333300674e-01
7.0500000000000002e-11,4.1666666666647370e+00,8.3333333333364379e-01
7.0750000000000001e-11,4.1666666666687462e+00,8.3333333333308335e-01
7.1000000000000000e-11,4.1666666666644296e+00,8.3333333333356718e-01
7.1250000000000000e-11,4.1666666666690535e+00,8.3333333333315995e-01
7.1499999999999999e-11,4.1666666666644296e+00,8.3333333333356718e-01
7.1749999999999998e-11,4.1666666666687462e+00,8.3333333333308335e-01
7.1999999999999997e-11,4.1666666666647370e+00,8.3333333333364379e-01
